(1727120880.024582) can0 3F8#0D0E330E02060205
(1727120880.024582) can0 3FA#277A010055FEFFFF
(1727120880.024583) can0 3F6#9F012CFF7FFC3000
(1727120880.095308) can0 610#ADD27742DD99803C
(1727120880.095309) can0 600#15C85B420AEA8C3C
(1727120880.125127) can0 3F8#0D0E330E02060205
(1727120880.125128) can0 3FA#277A010050FEFFFF
(1727120880.125128) can0 3F6#9F012CFF7FFC3000
(1727120880.175605) can0 611#3B39E34276420C3C
(1727120880.175606) can0 601#2AF9E2420573083C
(1727120880.225746) can0 3F8#0D0E330E02060205
(1727120880.225747) can0 3FA#277A010059FEFFFF
(1727120880.225747) can0 3F6#9F012CFF7FFC3000
(1727120880.255946) can0 612#0D8ECD4180630042
(1727120880.255947) can0 602#DA75CD414A14DF41
(1727120880.326343) can0 3F8#0D0E330E02060205
(1727120880.326345) can0 3FA#277A01005EFEFFFF
(1727120880.326345) can0 3F6#9F012CFF7FFC3000
(1727120880.336296) can0 613#71832F412FA74140
(1727120880.336297) can0 603#D17F314146F33E40
(1727120880.416600) can0 614#CDCCE2420000E040
(1727120880.416602) can0 604#CDCCE2420000E040
(1727120880.426920) can0 3F8#0D0E330E02060205
(1727120880.426921) can0 3FA#377A010059FEFFFF
(1727120880.426922) can0 3F6#9F012CFF7FFC3000
(1727120880.456301) can0 304#CB0E00000201EE00
(1727120880.456302) can0 305#180E100E170E250E
(1727120880.458205) can0 306#170E330E0D0E170E
(1727120880.458205) can0 307#D10E0000FA00ED00
(1727120880.460165) can0 308#160E190E160E180E
(1727120880.460166) can0 309#190E1C0E1B0E180E
(1727120880.462109) can0 30A#DF0F0000DC00ED00
(1727120880.462109) can0 30B#1A0E1D0E180E1C0E
(1727120880.464110) can0 30C#1C0E008000800080
(1727120880.476888) can0 301#521200001101EE00
(1727120880.476889) can0 302#180E190E170E1A0E
(1727120880.478829) can0 303#170E1B0E00800080
(1727120880.496934) can0 615#000000080001803A
(1727120880.496935) can0 605#000000080001803A
(1727120880.527521) can0 3F8#0D0E330E02060205
(1727120880.527521) can0 3FA#277A01005BFEFFFF
(1727120880.527522) can0 3F6#9F012CFF7FFC3000
(1727120880.577285) can0 616#DA5EE3423DACC241
(1727120880.577285) can0 606#802BE3424E29C341
(1727120880.628111) can0 3F8#0D0E330E02060205
(1727120880.628112) can0 3FA#277A010063FEFFFF
(1727120880.628112) can0 3F6#9F012CFF7FFC3000
(1727120880.729541) can0 3F8#0D0E330E02060205
(1727120880.729541) can0 3FA#377A01005EFEFFFF
(1727120880.729542) can0 3F6#9F012CFF7FFC3000
(1727120880.729542) can0 3F9#ED00EE0003000100
(1727120880.730751) can0 300#05500000AB0D0000
(1727120880.730751) can0 3FB#D20FA00F8004C703
(1727120880.730752) can0 3F7#5C04000000030100
(1727120880.730752) can0 3F4#B00ACA416A9CF23E
(1727120880.731971) can0 3F5#0000000000000000
(1727120880.731972) can0 3FC#500AAA0A87032300
(1727120880.731972) can0 3FD#8000000000000000
(1727120880.829302) can0 3F8#0D0E330E02060205
(1727120880.829303) can0 3FA#277A01004FFEFFFF
(1727120880.829304) can0 3F6#9F012CFF7FFC3000
(1727120880.898533) can0 610#D5D177428A38813C
(1727120880.898533) can0 600#8FD96142AF37853C
(1727120880.929906) can0 3F8#0D0E330E02060205
(1727120880.929906) can0 3FA#277A01005BFEFFFF
(1727120880.929907) can0 3F6#9F012CFF7FFC3000
(1727120880.978865) can0 611#2DE7E24202220D3C
(1727120880.978866) can0 601#45A8E24231BE043C
(1727120881.030477) can0 3F8#0D0E330E02060205
(1727120881.030477) can0 3FA#377A01005FFEFFFF
(1727120881.030478) can0 3F6#9F012CFF7FFC3000
(1727120881.059261) can0 612#6390CD41BD700042
(1727120881.059262) can0 602#EB7ACD4160FCDE41
(1727120881.131080) can0 3F8#0D0E330E02060205
(1727120881.131081) can0 3FA#277A01005BFEFFFF
(1727120881.131081) can0 3F6#9F012CFF7FFC3000
(1727120881.139527) can0 613#1EFC2E4197A14140
(1727120881.139527) can0 603#0B04314138EB3E40
(1727120881.219882) can0 614#CDCCE2420000E040
(1727120881.219883) can0 604#CDCCE2420000E040
(1727120881.231660) can0 3F8#0D0E330E02060205
(1727120881.231661) can0 3FA#277A01005DFEFFFF
(1727120881.231661) can0 3F6#9F012CFF7FFC3000
(1727120881.300251) can0 615#000000080001803B
(1727120881.300251) can0 605#000000080501803B
(1727120881.332247) can0 3F8#0D0E330E02060205
(1727120881.332248) can0 3FA#277A010067FEFFFF
(1727120881.332248) can0 3F6#9F012CFF7FFC3000
(1727120881.344922) can0 304#CB0E00000201EC00
(1727120881.344923) can0 305#180E100E170E250E
(1727120881.346827) can0 306#170E330E0D0E170E
(1727120881.346827) can0 307#D10E0000FA00ED00
(1727120881.348786) can0 308#160E190E160E180E
(1727120881.349836) can0 309#190E1D0E1B0E180E
(1727120881.349836) can0 30A#DF0F0000DB00ED00
(1727120881.351668) can0 30B#1A0E1D0E180E1C0E
(1727120881.352691) can0 30C#1C0E008000800080
(1727120881.365526) can0 301#521200001201EE00
(1727120881.365527) can0 302#180E190E170E1A0E
(1727120881.367507) can0 303#170E1B0E00800080
(1727120881.380511) can0 616#BA0FE342FBA7C241
(1727120881.380512) can0 606#08DDE242F321C341
(1727120881.432843) can0 3F8#0D0E330E02060205
(1727120881.432844) can0 3FA#277A01005AFEFFFF
(1727120881.432844) can0 3F6#9F012CFF7FFC3000
(1727120881.533434) can0 3F8#0D0E330E02060205
(1727120881.533434) can0 3FA#277A010058FEFFFF
(1727120881.533435) can0 3F6#9F012CFF7FFC3000
(1727120881.634007) can0 3F8#0D0E330E02060205
(1727120881.634008) can0 3FA#277A010068FEFFFF
(1727120881.634008) can0 3F6#9F012CFF7FFC3000
(1727120881.701819) can0 610#47D077422739823C
(1727120881.701820) can0 600#48365B4217E38D3C
(1727120881.735443) can0 3F8#0D0E330E02060205
(1727120881.735444) can0 3FA#277A01005DFEFFFF
(1727120881.735444) can0 3F6#9F012CFF7FFC3000
(1727120881.735445) can0 3F9#EC00EE0002000100
(1727120881.736672) can0 300#05500000AB0D0000
(1727120881.736672) can0 3FB#D20FA00F8004C703
(1727120881.736673) can0 3F7#5C04000001030100
(1727120881.736674) can0 3F4#ED0ACA41189CF23E
(1727120881.737873) can0 3F5#0000000000000000
(1727120881.737873) can0 3FC#6E0AAA0A95032100
(1727120881.737874) can0 3FD#8000000000000000
(1727120881.782130) can0 611#6A21E342EA140E3C
(1727120881.782131) can0 601#C7E0E242C417093C
(1727120881.835223) can0 3F8#0D0E330E02060205
(1727120881.835224) can0 3FA#277A010065FEFFFF
(1727120881.835224) can0 3F6#9F012CFF7FFC3000
(1727120881.862456) can0 612#E793CD41BD700042
(1727120881.862456) can0 602#AB87CD414BEBDE41
(1727120881.935801) can0 3F8#0D0E330E02060205
(1727120881.935801) can0 3FA#277A010055FEFFFF
(1727120881.935802) can0 3F6#9F012CFF7FFC3000
(1727120881.942798) can0 613#F8822F4187A84140
(1727120881.942799) can0 603#9E7A314172F03E40
(1727120882.023119) can0 614#CDCCE2420000E040
(1727120882.023119) can0 604#CDCCE2420000E040
(1727120882.036391) can0 3F8#0D0E330E02060205
(1727120882.036392) can0 3FA#277A01005EFEFFFF
(1727120882.036392) can0 3F6#9F012CFF7FFC3000
(1727120882.103461) can0 615#000000080001803C
(1727120882.103461) can0 605#000000080001803C
(1727120882.136992) can0 3F8#0D0E330E02060205
(1727120882.136993) can0 3FA#277A010060FEFFFF
(1727120882.136993) can0 3F6#9F012CFF7FFC3000
(1727120882.183778) can0 616#0D4AE34290AAC241
(1727120882.183778) can0 606#0A13E342D225C341
(1727120882.233543) can0 304#CB0E00000201EE00
(1727120882.233544) can0 305#180E100E170E250E
(1727120882.235454) can0 306#170E330E0D0E170E
(1727120882.235454) can0 307#D10E0000FA00ED00
(1727120882.237582) can0 308#160E190E160E180E
(1727120882.237582) can0 3F8#0D0E330E02060205
(1727120882.237583) can0 3FA#277A010056FEFFFF
(1727120882.237583) can0 3F6#9F012CFF7FFC3000
(1727120882.238773) can0 309#190E1D0E1B0E180E
(1727120882.238774) can0 30A#DF0F0000DC00ED00
(1727120882.240289) can0 30B#1A0E1D0E180E1C0E
(1727120882.241328) can0 30C#1C0E008000800080
(1727120882.254205) can0 301#521200001101EE00
(1727120882.254205) can0 302#180E190E170E1A0E
(1727120882.256203) can0 303#170E1B0E00800080
(1727120882.338202) can0 3F8#0D0E330E02060205
(1727120882.338202) can0 3FA#277A01005BFEFFFF
(1727120882.338203) can0 3F6#9F012CFF7FFC3000
(1727120882.438778) can0 3F8#0D0E330E02060205
(1727120882.438779) can0 3FA#277A010053FEFFFF
(1727120882.438779) can0 3F6#9F012CFF7FFC3000
(1727120882.505087) can0 610#08D477426DE8813C
(1727120882.505087) can0 600#A7FE61428EE1863C
(1727120882.539384) can0 3F8#0D0E330E02060205
(1727120882.539385) can0 3FA#277A010055FEFFFF
(1727120882.539385) can0 3F6#9F012CFF7FFC3000
(1727120882.585411) can0 611#67D1E242FCF00D3C
(1727120882.585412) can0 601#838FE242508B063C
(1727120882.639957) can0 3F8#0D0E330E02060205
(1727120882.639958) can0 3FA#277A010060FEFFFF
(1727120882.639959) can0 3F6#9F012CFF7FFC3000
(1727120882.665732) can0 612#E289CD4113630042
(1727120882.665733) can0 602#8283CD415BD9DE41
(1727120882.741393) can0 3F8#0D0E330E02060205
(1727120882.741393) can0 3FA#377A010052FEFFFF
(1727120882.741394) can0 3F6#9F012CFF7FFC3000
(1727120882.741394) can0 3F9#ED00EE0003000100
(1727120882.742604) can0 300#05500000AB0D0000
(1727120882.742605) can0 3FB#D20FA00F8004C703
(1727120882.742605) can0 3F7#5C04000002030100
(1727120882.742605) can0 3F4#2A0BCA41C89BF23E
(1727120882.743824) can0 3F5#0000000000000000
(1727120882.743824) can0 3FC#500A8C0A93032100
(1727120882.743824) can0 3FD#8000000000000000
(1727120882.746064) can0 613#A5FA2E41ABA14140
(1727120882.746065) can0 603#A3FE3041E8ED3E40
(1727120882.826380) can0 614#CDCCE2420000E040
(1727120882.826380) can0 604#CDCCE2420000E040
(1727120882.841175) can0 3F8#0D0E330E02060205
(1727120882.841176) can0 3FA#277A010059FEFFFF
(1727120882.841176) can0 3F6#9F012CFF7FFC3000
(1727120882.906723) can0 615#000000080001803D
(1727120882.906724) can0 605#000000080501803D
(1727120882.941768) can0 3F8#0D0E330E02060205
(1727120882.941769) can0 3FA#277A01005EFEFFFF
(1727120882.941769) can0 3F6#9F012CFF7FFC3000
(1727120882.987052) can0 616#A0F5E24213AFC241
(1727120882.987052) can0 606#28C8E242D12DC341
(1727120883.042343) can0 3F8#0D0E330E02060205
(1727120883.042344) can0 3FA#277A01005DFEFFFF
(1727120883.042344) can0 3F6#9F012CFF7FFC3000
(1727120883.122158) can0 304#CB0E00000201EE00
(1727120883.122159) can0 305#180E100E160E250E
(1727120883.124161) can0 306#170E330E0D0E170E
(1727120883.124162) can0 307#D10E0000FA00ED00
(1727120883.126034) can0 308#160E190E160E180E
(1727120883.126035) can0 309#190E1D0E1B0E180E
(1727120883.127959) can0 30A#DF0F0000DC00ED00
(1727120883.127960) can0 30B#1A0E1D0E180E1C0E
(1727120883.129979) can0 30C#1C0E008000800080
(1727120883.143035) can0 301#521200001101EE00
(1727120883.143035) can0 3F8#0D0E330E02060205
(1727120883.143036) can0 3FA#277A01005CFEFFFF
(1727120883.143037) can0 3F6#9F012CFF7FFC3000
(1727120883.144215) can0 302#180E190E170E1A0E
(1727120883.144216) can0 303#170E1B0E00800080
(1727120883.243542) can0 3F8#0D0E330E02060205
(1727120883.243543) can0 3FA#277A010058FEFFFF
(1727120883.243544) can0 3F6#9F012CFF7FFC3000
(1727120883.308328) can0 610#45D67742AB09823C
(1727120883.308328) can0 600#27775B422F5C903C
(1727120883.344151) can0 3F8#0D0E330E02060205
(1727120883.344151) can0 3FA#277A010064FEFFFF
(1727120883.344152) can0 3F6#9F012CFF7FFC3000
(1727120883.388692) can0 611#0B13E34284ED0D3C
(1727120883.388692) can0 601#A0D5E2429CAB0B3C
(1727120883.444725) can0 3F8#0D0E330E02060205
(1727120883.444725) can0 3FA#277A010054FEFFFF
(1727120883.444726) can0 3F6#9F012CFF7FFC3000
(1727120883.469023) can0 612#9D8FCD41FB540042
(1727120883.469024) can0 602#DA85CD4165F6DE41
(1727120883.545342) can0 3F8#0D0E330E02060205
(1727120883.545344) can0 3FA#277A01005BFEFFFF
(1727120883.545345) can0 3F6#9F012CFF7FFC3000
(1727120883.549340) can0 613#2C842F419FA54140
(1727120883.549341) can0 603#237D314197F03E40
(1727120883.629665) can0 614#CDCCE2420000E040
(1727120883.629666) can0 604#CDCCE2420000E040
(1727120883.645927) can0 3F8#0D0E330E02060205
(1727120883.645929) can0 3FA#277A010063FEFFFF
(1727120883.645930) can0 3F6#9F012CFF7FFC3000
(1727120883.709998) can0 615#000000080001803E
(1727120883.709999) can0 605#000000080001803E
(1727120883.747353) can0 3F8#0D0E330E02060205
(1727120883.747354) can0 3FA#377A01005DFEFFFF
(1727120883.747356) can0 3F6#9F012CFF7FFC3000
(1727120883.747357) can0 3F9#ED00EE0003000100
(1727120883.748561) can0 300#05500000AB0D0000
(1727120883.748562) can0 3FB#D20FA00F8004C703
(1727120883.748563) can0 3F7#5C04000003030100
(1727120883.748565) can0 3F4#670BCA41769BF23E
(1727120883.749782) can0 3F5#0000000000000000
(1727120883.749784) can0 3FC#6E0AAA0A95032100
(1727120883.749785) can0 3FD#8000000000000000
(1727120883.790332) can0 616#CB3AE342B9ABC241
(1727120883.790334) can0 606#A806E342C127C341
(1727120883.847135) can0 3F8#0D0E330E02060205
(1727120883.847136) can0 3FA#277A01005FFEFFFF
(1727120883.847138) can0 3F6#9F012CFF7FFC3000
(1727120883.947701) can0 3F8#0D0E330E02060205
(1727120883.947702) can0 3FA#277A01005FFEFFFF
(1727120883.947704) can0 3F6#9F012CFF7FFC3000
(1727120884.010793) can0 304#CB0E00000101EE00
(1727120884.010795) can0 305#180E100E170E250E
(1727120884.012713) can0 306#170E330E0D0E170E
(1727120884.012714) can0 307#D10E0000FA00ED00
(1727120884.014636) can0 308#160E190E160E180E
(1727120884.014638) can0 309#190E1D0E1B0E180E
(1727120884.016551) can0 30A#DF0F0000DD00ED00
(1727120884.016553) can0 30B#1A0E1D0E180E1C0E
(1727120884.018568) can0 30C#1C0E008000800080
(1727120884.031484) can0 301#521200001101EE00
(1727120884.031486) can0 302#180E190E170E1A0E
(1727120884.033452) can0 303#170E1B0E00800080
(1727120884.048316) can0 3F8#0D0E330E02060205
(1727120884.048318) can0 3FA#277A010063FEFFFF
(1727120884.048319) can0 3F6#9F012CFF7FFC3000
(1727120884.111632) can0 610#9DD9774208A2823C
(1727120884.111633) can0 600#DD5162422E23873C
(1727120884.148893) can0 3F8#0D0E330E02060205
(1727120884.148894) can0 3FA#277A01005EFEFFFF
(1727120884.148896) can0 3F6#9F012CFF7FFC3000
(1727120884.191952) can0 611#E2C1E242C5C80E3C
(1727120884.191953) can0 601#9D7CE242AC09073C
(1727120884.249513) can0 3F8#0D0E330E02060205
(1727120884.249514) can0 3FA#277A010059FEFFFF
(1727120884.249516) can0 3F6#9F012CFF7FFC3000
(1727120884.272267) can0 612#3395CD41556A0042
(1727120884.272268) can0 602#A089CD41C2B9DE41
(1727120884.350108) can0 3F8#0D0E330E02060205
(1727120884.350110) can0 3FA#277A010060FEFFFF
(1727120884.350111) can0 3F6#9F012CFF7FFC3000
(1727120884.352621) can0 613#C0FB2E418FA24140
(1727120884.352622) can0 603#2802314132EE3E40
(1727120884.432960) can0 614#CDCCE2420000E040
(1727120884.432962) can0 604#CDCCE2420000E040
(1727120884.450682) can0 3F8#0D0E330E02060205
(1727120884.450685) can0 3FA#377A010059FEFFFF
(1727120884.450686) can0 3F6#9F012CFF7FFC3000
(1727120884.513278) can0 615#000000080401803F
(1727120884.513280) can0 605#000000080501803F
(1727120884.551295) can0 3F8#0D0E330E02060205
(1727120884.551296) can0 3FA#277A01005CFEFFFF
(1727120884.551298) can0 3F6#9F012CFF7FFC3000
(1727120884.593601) can0 616#D3E3E24270AAC241
(1727120884.593603) can0 606#EFB7E242362AC341
(1727120884.651878) can0 3F8#0D0E330E02060205
(1727120884.651880) can0 3FA#277A01005AFEFFFF
(1727120884.651881) can0 3F6#9F012CFF7FFC3000
(1727120884.753313) can0 3F8#0D0E330E02060205
(1727120884.753315) can0 3FA#277A010056FEFFFF
(1727120884.753316) can0 3F6#9F012CFF7FFC3000
(1727120884.753318) can0 3F9#ED00EE0003000100
(1727120884.754534) can0 300#05500000AB0D0000
(1727120884.754536) can0 3FB#D20FA00F8004C703
(1727120884.754537) can0 3F7#5C04000004030100
(1727120884.754538) can0 3F4#A50BCA41249BF23E
(1727120884.755743) can0 3F5#0000000000000000
(1727120884.755744) can0 3FC#500A8C0AA8032100
(1727120884.755746) can0 3FD#8000000000000000
(1727120884.853087) can0 3F8#0D0E330E02060205
(1727120884.853089) can0 3FA#277A010060FEFFFF
(1727120884.853090) can0 3F6#9F012CFF7FFC3000
(1727120884.899406) can0 304#CB0E00000201EE00
(1727120884.899408) can0 305#180E100E170E250E
(1727120884.901331) can0 306#170E330E0D0E170E
(1727120884.901332) can0 307#D10E0000FA00ED00
(1727120884.903277) can0 308#160E190E160E180E
(1727120884.903280) can0 309#190E1D0E1B0E180E
(1727120884.905205) can0 30A#DF0F0000DC00EE00
(1727120884.905207) can0 30B#1A0E1D0E180E1C0E
(1727120884.907215) can0 30C#1C0E008000800080
(1727120884.920082) can0 610#6D7D77429333843C
(1727120884.920083) can0 301#521200001101EE00
(1727120884.920085) can0 600#BFD25B4277CE903C
(1727120884.921095) can0 302#180E190E170E1A0E
(1727120884.921097) can0 303#170E1B0E00800080
(1727120884.953670) can0 3F8#0D0E330E02060205
(1727120884.953671) can0 3FA#277A010057FEFFFF
(1727120884.953673) can0 3F6#9F012CFF7FFC3000
(1727120885.000377) can0 611#E007E3426F1D103C
(1727120885.000378) can0 601#C2CEE242E6580C3C
(1727120885.054287) can0 3F8#0D0E330E02060205
(1727120885.054289) can0 3FA#277A010053FEFFFF
(1727120885.054290) can0 3F6#9F012CFF7FFC3000
(1727120885.080682) can0 612#2F8ECD41C26A0042
(1727120885.080684) can0 602#B885CD41A006DF41
(1727120885.154872) can0 3F8#0D0E330E02060205
(1727120885.154874) can0 3FA#277A01005DFEFFFF
(1727120885.154875) can0 3F6#9F012CFF7FFC3000
(1727120885.161077) can0 613#5B7A2F41CEA44140
(1727120885.161080) can0 603#C779314151F13E40
(1727120885.241369) can0 614#CDCCE2420000E040
(1727120885.241371) can0 604#CDCCE2420000E040
(1727120885.255509) can0 3F8#0D0E330E02060205
(1727120885.255511) can0 3FA#377A010058FEFFFF
(1727120885.255512) can0 3F6#9F012CFF7FFC3000
(1727120885.321689) can0 615#0000000800018040
(1727120885.321690) can0 605#0000000800018040
(1727120885.356152) can0 3F8#0D0E330E02060205
(1727120885.356156) can0 3FA#377A01005DFEFFFF
(1727120885.356160) can0 3F6#9F012CFF7FFC3000
(1727120885.402086) can0 616#FF31E3425EB0C241
(1727120885.402089) can0 606#BD00E3426E2DC341
(1727120885.456682) can0 3F8#0D0E330E02060205
(1727120885.456684) can0 3FA#277A010058FEFFFF
(1727120885.456685) can0 3F6#9F012CFF7FFC3000
(1727120885.557287) can0 3F8#0D0E330E02060205
(1727120885.557288) can0 3FA#277A010058FEFFFF
(1727120885.557290) can0 3F6#9F012CFF7FFC3000
(1727120885.657868) can0 3F8#0D0E330E02060205
(1727120885.657870) can0 3FA#277A01005BFEFFFF
(1727120885.657872) can0 3F6#9F012CFF7FFC3000
(1727120885.723321) can0 610#48D377427E80823C
(1727120885.723322) can0 600#AB6662424BC0863C
(1727120885.759304) can0 3F8#0D0E330E02060205
(1727120885.759305) can0 3FA#277A01005EFEFFFF
(1727120885.759307) can0 3F6#9F012CFF7FFC3000
(1727120885.759308) can0 3F9#ED00EE0003000100
(1727120885.760522) can0 300#05500000AB0D0000
(1727120885.760524) can0 3FB#D20FA00F8004C703
(1727120885.760525) can0 3F7#5C04000005030100
(1727120885.760526) can0 3F4#E20BCA41D29AF23E
(1727120885.761733) can0 3F5#0000000000000000
(1727120885.761734) can0 3FC#500AAA0AA2032100
(1727120885.761735) can0 3FD#8000000000000000
(1727120885.788038) can0 304#CB0E00000201EE00
(1727120885.788040) can0 305#180E100E170E250E
(1727120885.789961) can0 306#170E320E0D0E170E
(1727120885.789963) can0 307#D10E0000FA00ED00
(1727120885.791898) can0 308#160E190E160E180E
(1727120885.791900) can0 309#190E1C0E1B0E180E
(1727120885.793837) can0 30A#DF0F0000DD00EE00
(1727120885.793838) can0 30B#1A0E1D0E180E1C0E
(1727120885.795836) can0 30C#1C0E008000800080
(1727120885.803637) can0 611#C7BFE242CAA10E3C
(1727120885.803639) can0 601#EF75E24236B7063C
(1727120885.808788) can0 301#521200001101EE00
(1727120885.808790) can0 302#180E190E160E1A0E
(1727120885.810751) can0 303#170E1B0E00800080
(1727120885.859066) can0 3F8#0D0E320E02060205
(1727120885.859067) can0 3FA#277A010062FEFFFF
(1727120885.859069) can0 3F6#A0012CFF7FFC3000
(1727120885.884038) can0 612#7D8CCD413F590042
(1727120885.884040) can0 602#A78DCD41EA8FDE41
(1727120885.959680) can0 3F8#0D0E320E02060205
(1727120885.959682) can0 3FA#277A01005EFEFFFF
(1727120885.959684) can0 3F6#A0012CFF7FFC3000
(1727120885.964289) can0 613#19F02E4180A94140
(1727120885.964291) can0 603#A6F93041BBF03E40
(1727120886.044672) can0 614#CDCCE2420000E040
(1727120886.044674) can0 604#CDCCE2420000E040
(1727120886.060278) can0 3F8#0D0E320E02060205
(1727120886.060281) can0 3FA#277A010062FEFFFF
(1727120886.060282) can0 3F6#A0012CFF7FFC3000
(1727120886.125024) can0 615#0000000805018041
(1727120886.125025) can0 605#0000000805018041
(1727120886.160861) can0 3F8#0D0E320E02060205
(1727120886.160862) can0 3FA#277A01005DFEFFFF
(1727120886.160864) can0 3F6#A0012CFF7FFC3000
(1727120886.205270) can0 616#82E3E24237A7C241
(1727120886.205272) can0 606#0BACE2428630C341
(1727120886.261461) can0 3F8#0D0E320E02060205
(1727120886.261463) can0 3FA#277A01005DFEFFFF
(1727120886.261464) can0 3F6#A0012CFF7FFC3000
(1727120886.362053) can0 3F8#0D0E320E02060205
(1727120886.362055) can0 3FA#277A01005EFEFFFF
(1727120886.362056) can0 3F6#A0012CFF7FFC3000
(1727120886.462665) can0 3F8#0D0E320E02060205
(1727120886.462667) can0 3FA#277A01005DFEFFFF
(1727120886.462668) can0 3F6#A0012CFF7FFC3000
(1727120886.526584) can0 610#800873420A27943C
(1727120886.526585) can0 600#87365C42D68E8D3C
(1727120886.563253) can0 3F8#0D0E320E02060205
(1727120886.563254) can0 3FA#277A01005FFEFFFF
(1727120886.563256) can0 3F6#A0012CFF7FFC3000
(1727120886.606915) can0 611#B5EBE342D3F91D3C
(1727120886.606917) can0 601#DFA9E342E0EC083C
(1727120886.663835) can0 3F8#0D0E320E02060205
(1727120886.663837) can0 3FA#277A01005FFEFFFF
(1727120886.663838) can0 3F6#A0012CFF7FFC3000
(1727120886.676650) can0 304#CB0E00000201EE00
(1727120886.676652) can0 305#180E100E170E250E
(1727120886.678574) can0 306#170E330E0D0E170E
(1727120886.678575) can0 307#D10E0000FA00ED00
(1727120886.680513) can0 308#160E190E160E180E
(1727120886.680515) can0 309#190E1C0E1B0E180E
(1727120886.682457) can0 30A#DF0F0000DC00EE00
(1727120886.682459) can0 30B#1A0E1D0E180E1C0E
(1727120886.684458) can0 30C#1C0E008000800080
(1727120886.687245) can0 612#B091CD41F8570042
(1727120886.687247) can0 602#CB8ACD41A38BDE41
(1727120886.697419) can0 301#521200001101EE00
(1727120886.697421) can0 302#180E190E170E1A0E
(1727120886.699388) can0 303#170E1B0E00800080
(1727120886.765275) can0 3F8#0D0E330E02060205
(1727120886.765276) can0 3FA#277A01005EFEFFFF
(1727120886.765278) can0 3F6#9F012CFF7FFC3000
(1727120886.765280) can0 3F9#ED00EE0003000100
(1727120886.766491) can0 300#05500000AB0D0000
(1727120886.766493) can0 3FB#D20FA00F8004C703
(1727120886.766494) can0 3F7#5C04000006030100
(1727120886.766495) can0 3F4#1F0CCA41809AF23E
(1727120886.767614) can0 613#656A2F4114AD4140
(1727120886.767616) can0 3F5#0000000000000000
(1727120886.767617) can0 3FC#6E0AAA0A8F032100
(1727120886.767618) can0 603#EB6A314187F13E40
(1727120886.768644) can0 3FD#8000000000000000
(1727120886.847883) can0 614#CDCCE2420000E040
(1727120886.847884) can0 604#CDCCE2420000E040
(1727120886.865036) can0 3F8#0D0E330E02060205
(1727120886.865038) can0 3FA#277A010061FEFFFF
(1727120886.865040) can0 3F6#9F012CFF7FFC3000
(1727120886.928247) can0 615#0000000800018042
(1727120886.928249) can0 605#0000000800018042
(1727120886.965650) can0 3F8#0D0E330E02060205
(1727120886.965652) can0 3FA#277A01005DFEFFFF
(1727120886.965654) can0 3F6#9F012CFF7FFC3000
(1727120887.008551) can0 616#AA0CE44206A5C241
(1727120887.008552) can0 606#6AD9E3425432C341
(1727120887.066230) can0 3F8#0D0E330E02060205
(1727120887.066231) can0 3FA#277A010065FEFFFF
(1727120887.066233) can0 3F6#9F012CFF7FFC3000
(1727120887.166854) can0 3F8#0D0E330E02060205
(1727120887.166856) can0 3FA#277A010058FEFFFF
(1727120887.166857) can0 3F6#9F012CFF7FFC3000
(1727120887.267422) can0 3F8#0D0E330E02060205
(1727120887.267423) can0 3FA#277A01005DFEFFFF
(1727120887.267425) can0 3F6#9F012CFF7FFC3000
(1727120887.329840) can0 610#00A87742E0B5753C
(1727120887.329842) can0 600#4A6D6242DABC853C
(1727120887.368031) can0 3F8#0D0E330E02060205
(1727120887.368033) can0 3FA#277A01005DFEFFFF
(1727120887.368034) can0 3F6#9F012CFF7FFC3000
(1727120887.410180) can0 611#ED9AE342A2AD053C
(1727120887.410182) can0 601#1F53E342A335053C
(1727120887.468616) can0 3F8#0D0E330E02060205
(1727120887.468617) can0 3FA#277A01005DFEFFFF
(1727120887.468618) can0 3F6#9F012CFF7FFC3000
(1727120887.490505) can0 612#43A0CD4137620042
(1727120887.490507) can0 602#008DCD41D3A7DE41
(1727120887.565283) can0 304#CB0E00000201EE00
(1727120887.565284) can0 305#180E100E170E250E
(1727120887.567184) can0 306#170E330E0D0E170E
(1727120887.567187) can0 307#D10E0000FA00ED00
(1727120887.569213) can0 3F8#0D0E330E02060205
(1727120887.569214) can0 3FA#277A010057FEFFFF
(1727120887.569216) can0 3F6#9F012CFF7FFC3000
(1727120887.569217) can0 308#160E190E160E180E
(1727120887.570423) can0 309#190E1C0E1B0E180E
(1727120887.570424) can0 613#35D62E4152A54140
(1727120887.570426) can0 30A#DF0F0000DC00EE00
(1727120887.571519) can0 603#FAF3304171F03E40
(1727120887.571520) can0 30B#1A0E1D0E180E1C0E
(1727120887.573075) can0 30C#1C0E008000800080
(1727120887.586087) can0 301#521200001101EF00
(1727120887.586089) can0 302#180E190E170E1A0E
(1727120887.588041) can0 303#170E1B0E00800080
(1727120887.651152) can0 614#CDCCE2420000E040
(1727120887.651154) can0 604#CDCCE2420000E040
(1727120887.669804) can0 3F8#0D0E330E02060205
(1727120887.669806) can0 3FA#277A01005BFEFFFF
(1727120887.669807) can0 3F6#9F012CFF7FFC3000
(1727120887.731493) can0 615#0000000800018043
(1727120887.731495) can0 605#0000000800018043
(1727120887.771264) can0 3F8#0D0E330E02060205
(1727120887.771265) can0 3FA#277A010063FEFFFF
(1727120887.771267) can0 3F6#9F012CFF7FFC3000
(1727120887.771269) can0 3F9#ED00EF0003000100
(1727120887.772469) can0 300#05500000AB0D0000
(1727120887.772471) can0 3FB#D20FA00F8004C703
(1727120887.772472) can0 3F7#5C04000007030100
(1727120887.772473) can0 3F4#5C0CCA41309AF23E
(1727120887.773690) can0 3F5#0000000000000000
(1727120887.773691) can0 3FC#500A8C0A95032100
(1727120887.773692) can0 3FD#8000000000000000
(1727120887.811813) can0 616#8ABAE3424EAEC241
(1727120887.811816) can0 606#228CE342A730C341
(1727120887.871014) can0 3F8#0D0E330E02060205
(1727120887.871015) can0 3FA#277A010063FEFFFF
(1727120887.871016) can0 3F6#9F012DFF7FFC3000
(1727120887.971617) can0 3F8#0D0E330E02060205
(1727120887.971619) can0 3FA#477A01005EFEFFFF
(1727120887.971621) can0 3F6#9F012DFF7FFC3000
(1727120888.072231) can0 3F8#0D0E330E02060205
(1727120888.072232) can0 3FA#277A010066FEFFFF
(1727120888.072233) can0 3F6#9F012DFF7FFC3000
(1727120888.133104) can0 610#CAA477424B05733C
(1727120888.133106) can0 600#6B1F6442E67B823C
(1727120888.172811) can0 3F8#0D0E330E02060205
(1727120888.172813) can0 3FA#277A010066FEFFFF
(1727120888.172815) can0 3F6#9F012DFF7FFC3000
