;$FILEVERSION=1.1
;$STARTTIME=45565.4446938773
;
;   Start time: 9/30/2024 10:40:21.551.0
;   Generated by PCAN-View v5.3.0.942
;
;   Message Number
;   |         Time Offset (ms)
;   |         |        Type
;   |         |        |        ID (hex)
;   |         |        |        |     Data Length
;   |         |        |        |     |   Data Bytes (hex) ...
;   |         |        |        |     |   |
;---+--   ----+----  --+--  ----+---  +  -+ -- -- -- -- -- -- --
     1)        27.9  Rx         03F8  8  0A 0E 28 0E 02 01 02 05
     2)        28.2  Rx         03FA  8  27 7A 01 00 65 FE FF FF
     3)        28.5  Rx         03F6  8  AA 01 22 FF 82 FC 30 00
     4)       128.5  Rx         03F8  8  0A 0E 28 0E 02 01 02 05
     5)       128.8  Rx         03FA  8  27 7A 01 00 60 FE FF FF
     6)       129.1  Rx         03F6  8  AA 01 22 FF 82 FC 30 00
     7)       229.1  Rx         03F8  8  0A 0E 28 0E 02 01 02 05
     8)       229.4  Rx         03FA  8  27 7A 01 00 58 FE FF FF
     9)       229.7  Rx         03F6  8  AA 01 22 FF 82 FC 30 00
    10)       233.6  Rx         0600  8  B3 B7 4E 42 C3 A7 82 3C
    11)       233.9  Rx         0610  8  30 27 68 42 90 5C 72 3C
    12)       285.4  Rx         0304  8  CB 0E 00 00 F1 00 E3 00
    13)       286.4  Rx         0307  8  D1 0E 00 00 E7 00 E5 00
    14)       287.3  Rx         0305  8  12 0E 0B 0E 12 0E 21 0E
    15)       288.3  Rx         0308  8  11 0E 14 0E 12 0E 14 0E
    16)       289.2  Rx         0306  8  13 0E 28 0E 0F 0E 13 0E
    17)       290.2  Rx         0301  8  52 12 00 00 00 01 E4 00
    18)       291.1  Rx         0309  8  14 0E 19 0E 18 0E 14 0E
    19)       292.0  Rx         0302  8  13 0E 14 0E 12 0E 15 0E
    20)       292.9  Rx         030A  8  DF 0F 00 00 CD 00 E3 00
    21)       293.9  Rx         0303  8  14 0E 17 0E 00 80 00 80
    22)       294.8  Rx         030B  8  16 0E 19 0E 15 0E 18 0E
    23)       295.8  Rx         030C  8  18 0E 00 80 00 80 00 80
    24)       314.0  Rx         0601  8  2D 9C E2 42 3D 5F EE 3B
    25)       314.2  Rx         0611  8  F3 D0 E2 42 70 10 F8 3B
    26)       330.5  Rx         03F8  8  0B 0E 28 0E 02 01 02 05
    27)       330.8  Rx         03FA  8  37 7A 01 00 55 FE FF FF
    28)       331.1  Rx         03F6  8  AA 01 22 FF 81 FC 30 00
    29)       331.4  Rx         03F9  8  E3 00 E5 00 02 00 03 00
    30)       331.7  Rx         0300  8  05 50 00 00 AB 0D 00 00
    31)       332.0  Rx         03FB  8  D2 0F A0 0F 80 04 C7 03
    32)       332.3  Rx         03F7  8  5C 04 00 00 D4 00 01 00
    33)       332.6  Rx         03F4  8  E4 D0 CB 41 D0 3E F0 3E
    34)       332.9  Rx         03F5  8  00 00 00 00 00 00 00 00
    35)       333.3  Rx         03FC  8  BA 09 14 0A DA 03 1F 00
    36)       333.6  Rx         03FD  8  80 00 00 00 00 00 00 00
    37)       394.3  Rx         0602  8  3F 0D C5 41 43 1A D7 41
    38)       394.6  Rx         0612  8  E2 43 C5 41 CD FC F8 41
    39)       430.2  Rx         03F8  8  0B 0E 28 0E 02 01 02 05
    40)       430.5  Rx         03FA  8  27 7A 01 00 5A FE FF FF
    41)       430.8  Rx         03F6  8  AA 01 23 FF 81 FC 30 00
    42)       474.7  Rx         0603  8  34 C0 29 41 B4 F3 3E 40
    43)       474.9  Rx         0613  8  A7 B1 27 41 E1 A9 41 40
    44)       530.8  Rx         03F8  8  0B 0E 28 0E 02 01 02 05
    45)       531.1  Rx         03FA  8  37 7A 01 00 58 FE FF FF
    46)       531.4  Rx         03F6  8  AA 01 23 FF 81 FC 30 00
    47)       555.1  Rx         0604  8  CD CC E2 42 00 00 E0 40
    48)       555.3  Rx         0614  8  CD CC E2 42 00 00 E0 40
    49)       631.4  Rx         03F8  8  0B 0E 28 0E 02 01 02 05
    50)       631.7  Rx         03FA  8  37 7A 01 00 55 FE FF FF
    51)       632.0  Rx         03F6  8  AA 01 23 FF 81 FC 30 00
    52)       635.4  Rx         0605  8  00 00 00 08 05 01 80 03
    53)       635.6  Rx         0615  8  00 00 00 08 00 01 80 03
    54)       715.7  Rx         0606  8  25 D1 E2 42 61 21 BD 41
    55)       716.0  Rx         0616  8  D7 FF E2 42 7F 52 BC 41
    56)       731.9  Rx         03F8  8  0B 0E 28 0E 02 01 02 05
    57)       732.2  Rx         03FA  8  37 7A 01 00 59 FE FF FF
    58)       732.5  Rx         03F6  8  AA 01 23 FF 81 FC 30 00
    59)       832.4  Rx         03F8  8  0B 0E 28 0E 02 01 02 05
    60)       832.8  Rx         03FA  8  27 7A 01 00 56 FE FF FF
    61)       833.1  Rx         03F6  8  AA 01 23 FF 81 FC 30 00
    62)       933.0  Rx         03F8  8  0B 0E 28 0E 02 01 02 05
    63)       933.3  Rx         03FA  8  37 7A 01 00 5E FE FF FF
    64)       933.6  Rx         03F6  8  AA 01 23 FF 81 FC 30 00
    65)      1033.6  Rx         03F8  8  0B 0E 28 0E 02 01 02 05
    66)      1033.9  Rx         03FA  8  37 7A 01 00 57 FE FF FF
    67)      1034.2  Rx         03F6  8  AA 01 23 FF 81 FC 30 00
    68)      1042.2  Rx         0600  8  90 F0 47 42 2B B9 88 3C
    69)      1042.4  Rx         0610  8  E8 2A 68 42 7F 9D 74 3C
    70)      1122.6  Rx         0601  8  C5 C7 E2 42 31 15 F1 3B
    71)      1122.8  Rx         0611  8  8B FB E2 42 F9 33 FA 3B
    72)      1134.1  Rx         03F8  8  0B 0E 28 0E 02 01 02 05
    73)      1134.4  Rx         03FA  8  37 7A 01 00 62 FE FF FF
    74)      1134.7  Rx         03F6  8  AA 01 23 FF 81 FC 30 00
    75)      1174.2  Rx         0304  8  CB 0E 00 00 F2 00 E3 00
    76)      1175.2  Rx         0307  8  D1 0E 00 00 E8 00 E4 00
    77)      1176.1  Rx         0305  8  12 0E 0A 0E 12 0E 21 0E
    78)      1177.1  Rx         0308  8  11 0E 14 0E 12 0E 14 0E
    79)      1178.0  Rx         0306  8  13 0E 28 0E 0F 0E 13 0E
    80)      1179.0  Rx         0301  8  52 12 00 00 00 01 E4 00
    81)      1179.9  Rx         0309  8  14 0E 19 0E 18 0E 14 0E
    82)      1180.8  Rx         0302  8  13 0E 14 0E 12 0E 16 0E
    83)      1181.8  Rx         030A  8  DF 0F 00 00 CC 00 E3 00
    84)      1182.7  Rx         0303  8  14 0E 17 0E 00 80 00 80
    85)      1183.7  Rx         030B  8  16 0E 19 0E 15 0E 18 0E
    86)      1184.7  Rx         030C  8  18 0E 00 80 00 80 00 80
    87)      1202.9  Rx         0602  8  19 18 C5 41 77 59 D7 41
    88)      1203.1  Rx         0612  8  D1 45 C5 41 E5 07 F9 41
    89)      1234.7  Rx         03F8  8  0A 0E 28 0E 02 01 02 05
    90)      1235.0  Rx         03FA  8  27 7A 01 00 5D FE FF FF
    91)      1235.3  Rx         03F6  8  AA 01 23 FF 82 FC 30 00
    92)      1283.3  Rx         0603  8  87 30 2A 41 53 FB 3E 40
    93)      1283.5  Rx         0613  8  F7 3F 28 41 D2 AD 41 40
    94)      1336.2  Rx         03F8  8  0A 0E 28 0E 02 01 02 05
    95)      1336.5  Rx         03FA  8  27 7A 01 00 57 FE FF FF
    96)      1336.8  Rx         03F6  8  AA 01 23 FF 82 FC 30 00
    97)      1337.1  Rx         03F9  8  E3 00 E4 00 02 00 01 00
    98)      1337.4  Rx         0300  8  05 50 00 00 AB 0D 00 00
    99)      1337.7  Rx         03FB  8  D2 0F A0 0F 80 04 C7 03
   100)      1337.9  Rx         03F7  8  5C 04 00 00 D5 00 01 00
   101)      1338.2  Rx         03F4  8  21 D1 CB 41 7E 3E F0 3E
   102)      1338.5  Rx         03F5  8  00 00 00 00 00 00 00 00
   103)      1338.9  Rx         03FC  8  D8 09 F6 09 AA 03 21 00
   104)      1339.2  Rx         03FD  8  80 00 00 00 00 00 00 00
   105)      1363.6  Rx         0604  8  CD CC E2 42 00 00 E0 40
   106)      1363.8  Rx         0614  8  CD CC E2 42 00 00 E0 40
   107)      1435.8  Rx         03F8  8  0A 0E 28 0E 02 01 02 05
   108)      1436.1  Rx         03FA  8  27 7A 01 00 59 FE FF FF
   109)      1436.5  Rx         03F6  8  AA 01 22 FF 82 FC 30 00
   110)      1443.9  Rx         0605  8  00 00 00 08 05 01 80 04
   111)      1444.2  Rx         0615  8  00 00 00 08 00 01 80 04
   112)      1524.2  Rx         0606  8  D8 FC E2 42 97 24 BD 41
   113)      1524.5  Rx         0616  8  D2 29 E3 42 28 4F BC 41
   114)      1536.4  Rx         03F8  8  0A 0E 28 0E 02 01 02 05
   115)      1536.7  Rx         03FA  8  27 7A 01 00 56 FE FF FF
   116)      1537.0  Rx         03F6  8  AA 01 22 FF 82 FC 30 00
   117)      1637.0  Rx         03F8  8  0A 0E 28 0E 02 01 02 05
   118)      1637.3  Rx         03FA  8  27 7A 01 00 52 FE FF FF
   119)      1637.6  Rx         03F6  8  AA 01 22 FF 82 FC 30 00
   120)      1737.5  Rx         03F8  8  0A 0E 28 0E 02 01 02 05
   121)      1737.8  Rx         03FA  8  27 7A 01 00 5E FE FF FF
   122)      1738.1  Rx         03F6  8  AA 01 22 FF 82 FC 30 00
   123)      1838.1  Rx         03F8  8  0A 0E 28 0E 02 01 02 05
   124)      1838.4  Rx         03FA  8  37 7A 01 00 56 FE FF FF
   125)      1838.7  Rx         03F6  8  AA 01 22 FF 82 FC 30 00
   126)      1845.7  Rx         0600  8  05 19 45 42 57 A1 89 3C
   127)      1845.9  Rx         0610  8  ED 2A 68 42 CB D0 74 3C
   128)      1925.9  Rx         0601  8  65 E7 E2 42 29 1A EF 3B
   129)      1926.2  Rx         0611  8  FD 27 E3 42 78 37 FA 3B
   130)      1938.7  Rx         03F8  8  0A 0E 28 0E 02 01 02 05
   131)      1939.0  Rx         03FA  8  27 7A 01 00 55 FE FF FF
   132)      1939.3  Rx         03F6  8  AA 01 22 FF 82 FC 30 00
   133)      2006.3  Rx         0602  8  0D 2A C5 41 37 4F D7 41
   134)      2006.5  Rx         0612  8  0D 4D C5 41 AB 20 F9 41
   135)      2039.2  Rx         03F8  8  0A 0E 28 0E 02 01 02 05
   136)      2039.5  Rx         03FA  8  47 7A 01 00 5D FE FF FF
   137)      2039.8  Rx         03F6  8  AA 01 22 FF 82 FC 30 00
   138)      2063.0  Rx         0304  8  CB 0E 00 00 F1 00 E3 00
   139)      2064.0  Rx         0307  8  D1 0E 00 00 E8 00 E4 00
   140)      2064.9  Rx         0305  8  12 0E 0A 0E 12 0E 21 0E
   141)      2065.9  Rx         0308  8  11 0E 14 0E 12 0E 14 0E
   142)      2066.8  Rx         0306  8  13 0E 28 0E 0F 0E 14 0E
   143)      2067.8  Rx         0301  8  52 12 00 00 00 01 E4 00
   144)      2068.7  Rx         0309  8  14 0E 19 0E 18 0E 14 0E
   145)      2069.6  Rx         0302  8  13 0E 14 0E 12 0E 15 0E
   146)      2070.5  Rx         030A  8  DF 0F 00 00 CC 00 E3 00
   147)      2071.5  Rx         0303  8  14 0E 17 0E 00 80 00 80
   148)      2072.4  Rx         030B  8  16 0E 19 0E 15 0E 18 0E
   149)      2073.5  Rx         030C  8  18 0E 00 80 00 80 00 80
   150)      2086.6  Rx         0603  8  44 BB 29 41 1E F7 3E 40
   151)      2086.9  Rx         0613  8  BA C0 27 41 DC B1 41 40
   152)      2139.8  Rx         03F8  8  0A 0E 28 0E 02 01 02 05
   153)      2140.1  Rx         03FA  8  27 7A 01 00 61 FE FF FF
   154)      2140.4  Rx         03F6  8  AA 01 22 FF 82 FC 30 00
   155)      2167.0  Rx         0604  8  CD CC E2 42 00 00 E0 40
   156)      2167.2  Rx         0614  8  CD CC E2 42 00 00 E0 40
   157)      2240.4  Rx         03F8  8  0A 0E 28 0E 02 01 02 05
   158)      2240.7  Rx         03FA  8  37 7A 01 00 5A FE FF FF
   159)      2241.0  Rx         03F6  8  AA 01 22 FF 82 FC 30 00
   160)      2247.4  Rx         0605  8  00 00 00 08 00 01 80 05
   161)      2247.6  Rx         0615  8  00 00 00 08 00 01 80 05
   162)      2327.6  Rx         0606  8  7A 1D E3 42 0B 31 BD 41
   163)      2327.9  Rx         0616  8  0B 53 E3 42 1B 48 BC 41
   164)      2341.8  Rx         03F8  8  0A 0E 28 0E 02 01 02 05
   165)      2342.1  Rx         03FA  8  27 7A 01 00 59 FE FF FF
   166)      2342.4  Rx         03F6  8  AA 01 22 FF 82 FC 30 00
   167)      2342.7  Rx         03F9  8  E3 00 E4 00 02 00 01 00
   168)      2343.0  Rx         0300  8  05 50 00 00 AB 0D 00 00
   169)      2343.3  Rx         03FB  8  D2 0F A0 0F 80 04 C7 03
   170)      2343.6  Rx         03F7  8  5C 04 00 00 D6 00 01 00
   171)      2343.9  Rx         03F4  8  5F D1 CB 41 2C 3E F0 3E
   172)      2344.2  Rx         03F5  8  00 00 00 00 00 00 00 00
   173)      2344.5  Rx         03FC  8  BA 09 F6 09 D0 03 21 00
   174)      2344.8  Rx         03FD  8  80 00 00 00 00 00 00 00
   175)      2441.4  Rx         03F8  8  0A 0E 28 0E 02 01 02 05
   176)      2441.7  Rx         03FA  8  27 7A 01 00 5A FE FF FF
   177)      2442.0  Rx         03F6  8  AA 01 22 FF 82 FC 30 00
   178)      2542.0  Rx         03F8  8  0A 0E 28 0E 02 01 02 05
   179)      2542.3  Rx         03FA  8  27 7A 01 00 57 FE FF FF
   180)      2542.6  Rx         03F6  8  AA 01 22 FF 82 FC 30 00
   181)      2642.6  Rx         03F8  8  0A 0E 28 0E 02 01 02 05
   182)      2642.9  Rx         03FA  8  37 7A 01 00 5A FE FF FF
   183)      2643.2  Rx         03F6  8  AA 01 22 FF 82 FC 30 00
   184)      2649.0  Rx         0600  8  35 0D 4E 42 A8 B9 83 3C
   185)      2649.3  Rx         0610  8  60 2E 68 42 C0 82 75 3C
   186)      2729.4  Rx         0601  8  E0 95 E2 42 65 93 EF 3B
   187)      2729.6  Rx         0611  8  F0 DB E2 42 34 45 FB 3B
   188)      2743.1  Rx         03F8  8  0A 0E 28 0E 02 01 02 05
   189)      2743.4  Rx         03FA  8  27 7A 01 00 55 FE FF FF
   190)      2743.7  Rx         03F6  8  AA 01 22 FF 82 FC 30 00
   191)      2809.7  Rx         0602  8  FB 27 C5 41 67 6B D7 41
   192)      2810.0  Rx         0612  8  73 51 C5 41 C0 31 F9 41
   193)      2843.7  Rx         03F8  8  0A 0E 28 0E 02 01 02 05
   194)      2844.0  Rx         03FA  8  27 7A 01 00 54 FE FF FF
   195)      2844.3  Rx         03F6  8  AA 01 22 FF 82 FC 30 00
   196)      2890.1  Rx         0603  8  EE 4F 2A 41 99 FA 3E 40
   197)      2890.3  Rx         0613  8  24 4F 28 41 42 B1 41 40
   198)      2944.3  Rx         03F8  8  0A 0E 28 0E 02 01 02 05
   199)      2944.6  Rx         03FA  8  27 7A 01 00 5C FE FF FF
   200)      2944.9  Rx         03F6  8  AA 01 22 FF 82 FC 30 00
   201)      2951.8  Rx         0304  8  CB 0E 00 00 F2 00 E3 00
   202)      2952.7  Rx         0307  8  D1 0E 00 00 E8 00 E5 00
   203)      2953.7  Rx         0305  8  13 0E 0A 0E 12 0E 21 0E
   204)      2954.6  Rx         0308  8  11 0E 14 0E 12 0E 14 0E
   205)      2955.6  Rx         0306  8  13 0E 28 0E 0F 0E 14 0E
   206)      2956.5  Rx         0301  8  52 12 00 00 00 01 E4 00
   207)      2957.5  Rx         0309  8  14 0E 19 0E 18 0E 14 0E
   208)      2958.4  Rx         0302  8  13 0E 14 0E 12 0E 15 0E
   209)      2959.3  Rx         030A  8  DF 0F 00 00 CC 00 E3 00
   210)      2960.3  Rx         0303  8  14 0E 17 0E 00 80 00 80
   211)      2961.2  Rx         030B  8  16 0E 19 0E 15 0E 18 0E
   212)      2962.2  Rx         030C  8  18 0E 00 80 00 80 00 80
   213)      2970.4  Rx         0604  8  CD CC E2 42 00 00 E0 40
   214)      2970.6  Rx         0614  8  CD CC E2 42 00 00 E0 40
   215)      3044.8  Rx         03F8  8  0A 0E 28 0E 02 01 02 05
   216)      3045.1  Rx         03FA  8  27 7A 01 00 55 FE FF FF
   217)      3045.4  Rx         03F6  8  AA 01 22 FF 82 FC 30 00
   218)      3050.8  Rx         0605  8  00 00 00 08 04 01 80 06
   219)      3051.0  Rx         0615  8  00 00 00 08 00 01 80 06
   220)      3131.1  Rx         0606  8  AF CC E2 42 F1 31 BD 41
   221)      3131.3  Rx         0616  8  5F FE E2 42 5C 48 BC 41
   222)      3145.4  Rx         03F8  8  0A 0E 28 0E 02 01 02 05
   223)      3145.7  Rx         03FA  8  37 7A 01 00 55 FE FF FF
   224)      3146.0  Rx         03F6  8  AA 01 22 FF 82 FC 30 00
   225)      3246.0  Rx         03F8  8  0A 0E 28 0E 02 01 02 05
   226)      3246.3  Rx         03FA  8  27 7A 01 00 57 FE FF FF
   227)      3246.6  Rx         03F6  8  AA 01 22 FF 82 FC 30 00
   228)      3347.4  Rx         03F8  8  0A 0E 28 0E 02 01 02 05
   229)      3347.7  Rx         03FA  8  27 7A 01 00 58 FE FF FF
   230)      3348.0  Rx         03F6  8  AA 01 22 FF 82 FC 30 00
   231)      3348.3  Rx         03F9  8  E3 00 E5 00 02 00 03 00
   232)      3348.6  Rx         0300  8  05 50 00 00 AB 0D 00 00
   233)      3348.9  Rx         03FB  8  D2 0F A0 0F 80 04 C7 03
   234)      3349.2  Rx         03F7  8  5C 04 00 00 D7 00 01 00
   235)      3349.5  Rx         03F4  8  9C D1 CB 41 DA 3D F0 3E
   236)      3349.9  Rx         03F5  8  00 00 00 00 00 00 00 00
   237)      3350.2  Rx         03FC  8  BA 09 14 0A D6 03 21 00
   238)      3350.5  Rx         03FD  8  80 00 00 00 00 00 00 00
   239)      3447.1  Rx         03F8  8  0A 0E 28 0E 02 01 02 05
   240)      3447.3  Rx         03FA  8  37 7A 01 00 59 FE FF FF
   241)      3447.6  Rx         03F6  8  AA 01 23 FF 82 FC 30 00
   242)      3452.4  Rx         0600  8  56 B2 45 42 83 E6 87 3C
   243)      3452.6  Rx         0610  8  ED 2D 68 42 97 B8 74 3C
   244)      3532.8  Rx         0601  8  A8 30 E3 42 21 84 EC 3B
   245)      3533.0  Rx         0611  8  FF 74 E3 42 47 CD F9 3B
   246)      3547.6  Rx         03F8  8  0A 0E 28 0E 02 01 02 05
   247)      3547.9  Rx         03FA  8  27 7A 01 00 56 FE FF FF
   248)      3548.2  Rx         03F6  8  AA 01 23 FF 82 FC 30 00
   249)      3613.1  Rx         0602  8  F3 26 C5 41 A2 52 D7 41
   250)      3613.4  Rx         0612  8  00 57 C5 41 73 33 F9 41
   251)      3648.2  Rx         03F8  8  0A 0E 28 0E 02 01 02 05
   252)      3648.5  Rx         03FA  8  27 7A 01 00 59 FE FF FF
   253)      3648.8  Rx         03F6  8  AA 01 23 FF 82 FC 30 00
   254)      3693.5  Rx         0603  8  53 43 29 41 BA F4 3E 40
   255)      3693.7  Rx         0613  8  57 3B 27 41 3C AD 41 40
   256)      3748.8  Rx         03F8  8  0A 0E 28 0E 02 01 02 05
   257)      3749.1  Rx         03FA  8  27 7A 01 00 55 FE FF FF
   258)      3749.4  Rx         03F6  8  AA 01 23 FF 82 FC 30 00
   259)      3773.8  Rx         0604  8  CD CC E2 42 00 00 E0 40
   260)      3774.1  Rx         0614  8  CD CC E2 42 00 00 E0 40
   261)      3840.6  Rx         0304  8  CB 0E 00 00 F1 00 E3 00
   262)      3841.5  Rx         0307  8  D1 0E 00 00 E8 00 E5 00
   263)      3842.4  Rx         0305  8  12 0E 0A 0E 12 0E 21 0E
   264)      3843.4  Rx         0308  8  11 0E 14 0E 12 0E 14 0E
   265)      3844.3  Rx         0306  8  13 0E 28 0E 0F 0E 13 0E
   266)      3845.3  Rx         0301  8  52 12 00 00 00 01 E4 00
   267)      3846.2  Rx         0309  8  14 0E 19 0E 18 0E 14 0E
   268)      3847.1  Rx         0302  8  13 0E 15 0E 12 0E 15 0E
   269)      3848.1  Rx         030A  8  DF 0F 00 00 CD 00 E3 00
   270)      3849.0  Rx         0303  8  14 0E 17 0E 00 80 00 80
   271)      3849.4  Rx         03F8  8  0A 0E 28 0E 02 01 02 05
   272)      3849.7  Rx         03FA  8  27 7A 01 00 54 FE FF FF
   273)      3850.0  Rx         03F6  8  AA 01 23 FF 82 FC 30 00
   274)      3850.3  Rx         030B  8  16 0E 19 0E 15 0E 18 0E
   275)      3851.0  Rx         030C  8  18 0E 00 80 00 80 00 80
   276)      3854.2  Rx         0605  8  00 00 00 08 00 01 80 07
   277)      3854.4  Rx         0615  8  00 00 00 08 00 01 80 07
   278)      3934.5  Rx         0606  8  02 6B E3 42 51 2D BD 41
   279)      3934.7  Rx         0616  8  D7 9B E3 42 8A 45 BC 41
   280)      3949.9  Rx         03F8  8  0A 0E 28 0E 02 01 02 05
   281)      3950.2  Rx         03FA  8  37 7A 01 00 51 FE FF FF
   282)      3950.5  Rx         03F6  8  AA 01 23 FF 82 FC 30 00
   283)      4050.5  Rx         03F8  8  0A 0E 28 0E 02 01 02 05
   284)      4050.8  Rx         03FA  8  37 7A 01 00 5B FE FF FF
   285)      4051.1  Rx         03F6  8  AA 01 23 FF 82 FC 30 00
   286)      4151.0  Rx         03F8  8  0A 0E 28 0E 02 01 02 05
   287)      4151.3  Rx         03FA  8  27 7A 01 00 56 FE FF FF
   288)      4151.6  Rx         03F6  8  AA 01 23 FF 82 FC 30 00
   289)      4251.6  Rx         03F8  8  0A 0E 28 0E 02 01 02 05
   290)      4251.9  Rx         03FA  8  27 7A 01 00 53 FE FF FF
   291)      4252.2  Rx         03F6  8  AA 01 23 FF 82 FC 30 00
   292)      4255.8  Rx         0600  8  6F 5E 4E 42 29 B5 85 3C
   293)      4256.0  Rx         0610  8  37 2E 68 42 B0 0A 75 3C
   294)      4336.2  Rx         0601  8  C3 DE E2 42 09 40 F3 3B
   295)      4336.4  Rx         0611  8  95 23 E3 42 0C 7B FA 3B
   296)      4353.1  Rx         03F8  8  0A 0E 28 0E 02 01 02 05
   297)      4353.4  Rx         03FA  8  27 7A 01 00 56 FE FF FF
   298)      4353.7  Rx         03F6  8  AA 01 23 FF 82 FC 30 00
   299)      4354.0  Rx         03F9  8  E3 00 E5 00 02 00 03 00
   300)      4354.3  Rx         0300  8  05 50 00 00 AB 0D 00 00
   301)      4354.6  Rx         03FB  8  D2 0F A0 0F 80 04 C7 03
   302)      4354.9  Rx         03F7  8  5C 04 00 00 D8 00 01 00
   303)      4355.2  Rx         03F4  8  DB D1 CB 41 86 3D F0 3E
   304)      4355.5  Rx         03F5  8  00 00 00 00 00 00 00 00
   305)      4355.8  Rx         03FC  8  BA 09 F6 09 C1 03 1F 00
   306)      4356.1  Rx         03FD  8  80 00 00 00 00 00 00 00
   307)      4416.5  Rx         0602  8  90 2A C5 41 EB 79 D7 41
   308)      4416.8  Rx         0612  8  41 53 C5 41 10 2A F9 41
   309)      4452.7  Rx         03F8  8  0A 0E 28 0E 02 01 02 05
   310)      4453.0  Rx         03FA  8  27 7A 01 00 5A FE FF FF
   311)      4453.3  Rx         03F6  8  AA 01 23 FF 82 FC 30 00
   312)      4496.9  Rx         0603  8  01 8B 29 41 93 FD 3E 40
   313)      4497.1  Rx         0613  8  7C 87 27 41 C7 B1 41 40
   314)      4553.3  Rx         03F8  8  0A 0E 28 0E 02 01 02 05
   315)      4553.6  Rx         03FA  8  37 7A 01 00 53 FE FF FF
   316)      4553.9  Rx         03F6  8  AA 01 23 FF 82 FC 30 00
   317)      4577.2  Rx         0604  8  CD CC E2 42 00 00 E0 40
   318)      4577.5  Rx         0614  8  CD CC E2 42 00 00 E0 40
   319)      4653.9  Rx         03F8  8  0A 0E 28 0E 02 01 02 05
   320)      4654.2  Rx         03FA  8  27 7A 01 00 54 FE FF FF
   321)      4654.5  Rx         03F6  8  AA 01 23 FF 82 FC 30 00
   322)      4657.6  Rx         0605  8  00 00 00 08 00 01 80 08
   323)      4657.8  Rx         0615  8  00 00 00 08 00 01 80 08
   324)      4729.3  Rx         0304  8  CB 0E 00 00 F1 00 E2 00
   325)      4730.3  Rx         0307  8  D1 0E 00 00 E8 00 E5 00
   326)      4731.2  Rx         0305  8  12 0E 0A 0E 12 0E 21 0E
   327)      4732.2  Rx         0308  8  11 0E 14 0E 12 0E 14 0E
   328)      4733.1  Rx         0306  8  13 0E 28 0E 10 0E 14 0E
   329)      4734.1  Rx         0301  8  52 12 00 00 00 01 E4 00
   330)      4735.0  Rx         0309  8  14 0E 19 0E 18 0E 14 0E
   331)      4735.9  Rx         0302  8  13 0E 15 0E 12 0E 15 0E
   332)      4736.9  Rx         030A  8  DF 0F 00 00 CC 00 E4 00
   333)      4737.9  Rx         0303  8  14 0E 17 0E 00 80 00 80
   334)      4738.1  Rx         0606  8  20 17 E3 42 74 32 BD 41
   335)      4738.3  Rx         0616  8  A3 4B E3 42 EC 45 BC 41
   336)      4738.8  Rx         030B  8  16 0E 19 0E 15 0E 18 0E
   337)      4739.8  Rx         030C  8  18 0E 00 80 00 80 00 80
   338)      4754.5  Rx         03F8  8  0A 0E 28 0E 02 01 02 05
   339)      4754.8  Rx         03FA  8  27 7A 01 00 52 FE FF FF
   340)      4755.1  Rx         03F6  8  AA 01 23 FF 82 FC 30 00
   341)      4855.0  Rx         03F8  8  0A 0E 28 0E 02 01 02 05
   342)      4855.3  Rx         03FA  8  27 7A 01 00 4E FE FF FF
   343)      4855.6  Rx         03F6  8  AA 01 23 FF 82 FC 30 00
   344)      4955.5  Rx         03F8  8  0A 0E 28 0E 02 01 02 05
   345)      4955.9  Rx         03FA  8  27 7A 01 00 56 FE FF FF
   346)      4956.2  Rx         03F6  8  AA 01 23 FF 82 FC 30 00
   347)      5056.2  Rx         03F8  8  0A 0E 28 0E 02 01 02 05
   348)      5056.4  Rx         03FA  8  27 7A 01 00 59 FE FF FF
   349)      5056.7  Rx         03F6  8  AA 01 23 FF 82 FC 30 00
   350)      5059.3  Rx         0600  8  F0 AC 51 42 7F FC 82 3C
   351)      5059.5  Rx         0610  8  33 2C 68 42 D2 52 75 3C
   352)      5139.6  Rx         0601  8  65 90 E2 42 D8 71 F2 3B
   353)      5139.8  Rx         0611  8  0A CF E2 42 12 20 FB 3B
   354)      5156.7  Rx         03F8  8  0A 0E 28 0E 02 01 02 05
   355)      5157.0  Rx         03FA  8  47 7A 01 00 52 FE FF FF
   356)      5157.3  Rx         03F6  8  AA 01 23 FF 82 FC 30 00
   357)      5219.9  Rx         0602  8  15 2B C5 41 BB 5D D7 41
   358)      5220.2  Rx         0612  8  11 55 C5 41 9D E0 F8 41
   359)      5257.2  Rx         03F8  8  0A 0E 28 0E 02 01 02 05
   360)      5257.5  Rx         03FA  8  27 7A 01 00 5D FE FF FF
   361)      5257.9  Rx         03F6  8  AA 01 23 FF 82 FC 30 00
   362)      5300.3  Rx         0603  8  03 16 29 41 14 F9 3E 40
   363)      5300.5  Rx         0613  8  8D 0D 27 41 B1 B4 41 40
   364)      5358.7  Rx         03F8  8  0A 0E 28 0E 02 01 02 05
   365)      5359.0  Rx         03FA  8  27 7A 01 00 50 FE FF FF
   366)      5359.3  Rx         03F6  8  AA 01 23 FF 82 FC 30 00
   367)      5359.6  Rx         03F9  8  E2 00 E5 00 02 00 03 00
   368)      5359.9  Rx         0300  8  05 50 00 00 AB 0D 00 00
   369)      5360.2  Rx         03FB  8  D2 0F A0 0F 80 04 C7 03
   370)      5360.5  Rx         03F7  8  5C 04 00 00 D9 00 01 00
   371)      5360.8  Rx         03F4  8  18 D2 CB 41 34 3D F0 3E
   372)      5361.1  Rx         03F5  8  00 00 00 00 00 00 00 00
   373)      5361.4  Rx         03FC  8  BA 09 F6 09 BF 03 1F 00
   374)      5361.8  Rx         03FD  8  80 00 00 00 00 00 00 00
   375)      5380.6  Rx         0604  8  CD CC E2 42 00 00 E0 40
   376)      5380.8  Rx         0614  8  CD CC E2 42 00 00 E0 40
   377)      5458.4  Rx         03F8  8  0A 0E 28 0E 02 01 02 05
   378)      5458.7  Rx         03FA  8  27 7A 01 00 58 FE FF FF
   379)      5459.0  Rx         03F6  8  AA 01 23 FF 82 FC 30 00
   380)      5461.0  Rx         0605  8  00 00 00 08 05 01 80 09
   381)      5461.2  Rx         0615  8  00 00 00 08 00 01 80 09
   382)      5541.3  Rx         0606  8  DD C1 E2 42 9E 38 BD 41
   383)      5541.5  Rx         0616  8  E2 F5 E2 42 47 45 BC 41
   384)      5559.0  Rx         03F8  8  0A 0E 28 0E 02 01 02 05
   385)      5559.3  Rx         03FA  8  27 7A 01 00 53 FE FF FF
   386)      5559.6  Rx         03F6  8  AA 01 23 FF 82 FC 30 00
   387)      5618.1  Rx         0304  8  CB 0E 00 00 F2 00 E2 00
   388)      5619.1  Rx         0307  8  D1 0E 00 00 E8 00 E5 00
   389)      5620.0  Rx         0305  8  13 0E 0A 0E 12 0E 21 0E
   390)      5621.0  Rx         0308  8  11 0E 14 0E 12 0E 14 0E
   391)      5621.9  Rx         0306  8  13 0E 28 0E 0F 0E 14 0E
   392)      5622.9  Rx         0301  8  52 12 00 00 00 01 E4 00
   393)      5623.8  Rx         0309  8  14 0E 19 0E 18 0E 14 0E
   394)      5624.7  Rx         0302  8  13 0E 14 0E 12 0E 15 0E
   395)      5625.7  Rx         030A  8  DF 0F 00 00 CC 00 E4 00
   396)      5626.7  Rx         0303  8  14 0E 17 0E 00 80 00 80
   397)      5627.6  Rx         030B  8  16 0E 19 0E 14 0E 18 0E
   398)      5628.6  Rx         030C  8  18 0E 00 80 00 80 00 80
   399)      5659.6  Rx         03F8  8  0A 0E 28 0E 02 01 02 05
   400)      5659.9  Rx         03FA  8  27 7A 01 00 5B FE FF FF
   401)      5660.2  Rx         03F6  8  AA 01 23 FF 82 FC 30 00
   402)      5760.1  Rx         03F8  8  0A 0E 28 0E 02 01 02 05
   403)      5760.4  Rx         03FA  8  27 7A 01 00 5B FE FF FF
   404)      5760.7  Rx         03F6  8  AA 01 23 FF 82 FC 30 00
   405)      5860.7  Rx         03F8  8  0A 0E 28 0E 02 01 02 05
   406)      5861.0  Rx         03FA  8  27 7A 01 00 50 FE FF FF
   407)      5861.3  Rx         03F6  8  AA 01 23 FF 82 FC 30 00
   408)      5862.7  Rx         0600  8  5F 13 49 42 44 F7 87 3C
   409)      5862.9  Rx         0610  8  AB 2A 68 42 A7 F5 75 3C
   410)      5943.0  Rx         0601  8  62 BE E2 42 F9 25 F1 3B
   411)      5943.2  Rx         0611  8  2A 01 E3 42 81 8D FB 3B
   412)      5961.2  Rx         03F8  8  0A 0E 28 0E 02 01 02 05
   413)      5961.5  Rx         03FA  8  27 7A 01 00 53 FE FF FF
   414)      5961.8  Rx         03F6  8  AA 01 23 FF 82 FC 30 00
   415)      6023.4  Rx         0602  8  52 36 C5 41 17 4A D7 41
   416)      6023.6  Rx         0612  8  86 5B C5 41 38 4C F9 41
   417)      6061.8  Rx         03F8  8  0A 0E 28 0E 02 01 02 05
   418)      6062.1  Rx         03FA  8  27 7A 01 00 59 FE FF FF
   419)      6062.4  Rx         03F6  8  AA 01 23 FF 82 FC 30 00
   420)      6103.7  Rx         0603  8  DB 6F 29 41 07 FF 3E 40
   421)      6103.9  Rx         0613  8  75 7C 27 41 F4 B0 41 40
   422)      6162.3  Rx         03F8  8  0A 0E 28 0E 02 01 02 05
   423)      6162.6  Rx         03FA  8  27 7A 01 00 51 FE FF FF
   424)      6162.9  Rx         03F6  8  AA 01 23 FF 82 FC 30 00
   425)      6184.1  Rx         0604  8  CD CC E2 42 00 00 E0 40
   426)      6184.3  Rx         0614  8  CD CC E2 42 00 00 E0 40
   427)      6262.9  Rx         03F8  8  0A 0E 28 0E 02 01 02 05
   428)      6263.2  Rx         03FA  8  27 7A 01 00 54 FE FF FF
   429)      6263.5  Rx         03F6  8  AA 01 23 FF 82 FC 30 00
   430)      6264.4  Rx         0605  8  00 00 00 08 05 01 80 0A
   431)      6264.7  Rx         0615  8  00 00 00 08 00 01 80 0A
   432)      6344.7  Rx         0606  8  B8 F2 E2 42 0D 36 BD 41
   433)      6345.0  Rx         0616  8  42 26 E3 42 CB 45 BC 41
   434)      6364.4  Rx         03F8  8  0A 0E 28 0E 02 01 02 05
   435)      6364.7  Rx         03FA  8  37 7A 01 00 4F FE FF FF
   436)      6365.0  Rx         03F6  8  AA 01 23 FF 82 FC 30 00
   437)      6365.3  Rx         03F9  8  E2 00 E5 00 02 00 03 00
   438)      6365.6  Rx         0300  8  05 50 00 00 AB 0D 00 00
   439)      6365.9  Rx         03FB  8  D2 0F A0 0F 80 04 C7 03
   440)      6366.2  Rx         03F7  8  5C 04 00 00 DA 00 01 00
   441)      6366.5  Rx         03F4  8  56 D2 CB 41 E2 3C F0 3E
   442)      6366.8  Rx         03F5  8  00 00 00 00 00 00 00 00
   443)      6367.1  Rx         03FC  8  BA 09 F6 09 AE 03 1F 00
   444)      6367.4  Rx         03FD  8  80 00 00 00 00 00 00 00
   445)      6464.0  Rx         03F8  8  0A 0E 28 0E 02 01 02 05
   446)      6464.4  Rx         03FA  8  27 7A 01 00 57 FE FF FF
   447)      6464.7  Rx         03F6  8  AA 01 23 FF 82 FC 30 00
   448)      6506.9  Rx         0304  8  CB 0E 00 00 F1 00 E2 00
   449)      6507.9  Rx         0307  8  D1 0E 00 00 E7 00 E5 00
   450)      6508.8  Rx         0305  8  12 0E 0A 0E 12 0E 21 0E
   451)      6509.7  Rx         0308  8  11 0E 14 0E 12 0E 14 0E
   452)      6510.7  Rx         0306  8  13 0E 28 0E 0F 0E 13 0E
   453)      6511.6  Rx         0301  8  52 12 00 00 00 01 E3 00
   454)      6512.5  Rx         0309  8  14 0E 19 0E 18 0E 14 0E
   455)      6513.5  Rx         0302  8  13 0E 15 0E 12 0E 15 0E
   456)      6514.4  Rx         030A  8  DF 0F 00 00 CC 00 E5 00
   457)      6515.4  Rx         0303  8  14 0E 17 0E 00 80 00 80
   458)      6516.3  Rx         030B  8  16 0E 19 0E 14 0E 18 0E
   459)      6517.4  Rx         030C  8  18 0E 00 80 00 80 00 80
   460)      6564.7  Rx         03F8  8  0A 0E 28 0E 02 01 02 05
   461)      6565.0  Rx         03FA  8  27 7A 01 00 58 FE FF FF
   462)      6565.3  Rx         03F6  8  AA 01 23 FF 82 FC 30 00
   463)      6665.2  Rx         03F8  8  0A 0E 28 0E 02 01 02 05
   464)      6665.5  Rx         03FA  8  27 7A 01 00 55 FE FF FF
   465)      6665.8  Rx         03F6  8  AA 01 23 FF 82 FC 30 00
   466)      6666.1  Rx         0600  8  17 CA 45 42 86 BF 86 3C
   467)      6666.3  Rx         0610  8  C8 29 68 42 D2 C9 75 3C
   468)      6746.5  Rx         0601  8  F0 E4 E2 42 38 ED EA 3B
   469)      6746.7  Rx         0611  8  ED 2A E3 42 81 31 FB 3B
   470)      6765.8  Rx         03F8  8  0A 0E 28 0E 02 01 02 05
   471)      6766.1  Rx         03FA  8  27 7A 01 00 59 FE FF FF
   472)      6766.4  Rx         03F6  8  AA 01 23 FF 82 FC 30 00
   473)      6826.8  Rx         0602  8  1B 3F C5 41 D2 45 D7 41
   474)      6827.0  Rx         0612  8  AA 63 C5 41 1B 47 F9 41
   475)      6866.4  Rx         03F8  8  0A 0E 28 0E 02 01 02 05
   476)      6866.7  Rx         03FA  8  27 7A 01 00 4B FE FF FF
   477)      6867.0  Rx         03F6  8  AA 01 23 FF 82 FC 30 00
   478)      6907.1  Rx         0603  8  05 3F 29 41 5B F8 3E 40
   479)      6907.4  Rx         0613  8  38 42 27 41 C1 AD 41 40
   480)      6966.9  Rx         03F8  8  0A 0E 28 0E 02 01 02 05
   481)      6967.2  Rx         03FA  8  27 7A 01 00 57 FE FF FF
   482)      6967.5  Rx         03F6  8  AA 01 23 FF 82 FC 30 00
   483)      6987.5  Rx         0604  8  CD CC E2 42 00 00 E0 40
   484)      6987.7  Rx         0614  8  CD CC E2 42 00 00 E0 40
   485)      7067.5  Rx         03F8  8  0A 0E 28 0E 02 01 02 05
   486)      7067.8  Rx         0605  8  00 00 00 08 00 01 80 0B
   487)      7068.0  Rx         03FA  8  27 7A 01 00 58 FE FF FF
   488)      7068.3  Rx         0615  8  00 00 00 08 00 01 80 0B
   489)      7068.6  Rx         03F6  8  AA 01 23 FF 82 FC 30 00
   490)      7148.2  Rx         0606  8  4A 1D E3 42 6A 3A BD 41
   491)      7148.4  Rx         0616  8  AA 52 E3 42 6B 4A BC 41
   492)      7168.1  Rx         03F8  8  0A 0E 28 0E 02 01 02 05
   493)      7168.3  Rx         03FA  8  27 7A 01 00 5B FE FF FF
   494)      7168.7  Rx         03F6  8  AA 01 23 FF 82 FC 30 00
   495)      7268.7  Rx         03F8  8  0A 0E 28 0E 02 01 02 05
   496)      7269.0  Rx         03FA  8  27 7A 01 00 55 FE FF FF
   497)      7269.3  Rx         03F6  8  AA 01 23 FF 82 FC 30 00
   498)      7370.1  Rx         03F8  8  0A 0E 28 0E 02 01 02 05
   499)      7370.4  Rx         03FA  8  27 7A 01 00 52 FE FF FF
   500)      7370.7  Rx         03F6  8  AA 01 23 FF 82 FC 30 00
   501)      7371.0  Rx         03F9  8  E2 00 E5 00 02 00 03 00
   502)      7371.3  Rx         0300  8  05 50 00 00 AB 0D 00 00
   503)      7371.6  Rx         03FB  8  D2 0F A0 0F 80 04 C7 03
   504)      7371.9  Rx         03F7  8  5C 04 00 00 DB 00 01 00
   505)      7372.2  Rx         03F4  8  95 D2 CB 41 8E 3C F0 3E
   506)      7372.5  Rx         03F5  8  00 00 00 00 00 00 00 00
   507)      7372.8  Rx         03FC  8  BA 09 F6 09 CD 03 1F 00
   508)      7373.1  Rx         03FD  8  80 00 00 00 00 00 00 00
   509)      7395.7  Rx         0304  8  CB 0E 00 00 F2 00 E2 00
   510)      7396.6  Rx         0307  8  D1 0E 00 00 E7 00 E4 00
   511)      7397.6  Rx         0305  8  12 0E 0A 0E 12 0E 21 0E
   512)      7398.5  Rx         0308  8  11 0E 14 0E 12 0E 14 0E
   513)      7399.5  Rx         0306  8  13 0E 28 0E 0F 0E 14 0E
   514)      7400.4  Rx         0301  8  52 12 00 00 00 01 E3 00
   515)      7401.3  Rx         0309  8  14 0E 19 0E 18 0E 14 0E
   516)      7402.2  Rx         0302  8  13 0E 15 0E 12 0E 15 0E
   517)      7403.2  Rx         030A  8  DF 0F 00 00 CD 00 E5 00
   518)      7404.2  Rx         0303  8  14 0E 17 0E 00 80 00 80
   519)      7405.1  Rx         030B  8  16 0E 19 0E 14 0E 18 0E
   520)      7406.1  Rx         030C  8  18 0E 00 80 00 80 00 80
   521)      7469.5  Rx         0600  8  52 50 4E 42 EF E0 84 3C
   522)      7469.7  Rx         0610  8  AA 29 68 42 27 D4 76 3C
   523)      7470.0  Rx         03F8  8  0A 0E 28 0E 02 01 02 05
   524)      7470.3  Rx         03FA  8  27 7A 01 00 54 FE FF FF
   525)      7470.6  Rx         03F6  8  AA 01 23 FF 82 FC 30 00
   526)      7549.9  Rx         0601  8  93 97 E2 42 55 F9 F1 3B
   527)      7550.1  Rx         0611  8  BF D8 E2 42 F3 9C FC 3B
   528)      7570.3  Rx         03F8  8  0A 0E 28 0E 02 01 02 05
   529)      7570.6  Rx         03FA  8  27 7A 01 00 58 FE FF FF
   530)      7570.9  Rx         03F6  8  AA 01 23 FF 82 FC 30 00
   531)      7630.2  Rx         0602  8  0A 3D C5 41 AD 46 D7 41
   532)      7630.4  Rx         0612  8  77 61 C5 41 CD 71 F9 41
   533)      7670.9  Rx         03F8  8  0A 0E 28 0E 02 01 02 05
   534)      7671.2  Rx         03FA  8  37 7A 01 00 57 FE FF FF
   535)      7671.5  Rx         03F6  8  AA 01 23 FF 82 FC 30 00
   536)      7710.5  Rx         0603  8  7F CB 29 41 4B F9 3E 40
   537)      7710.7  Rx         0613  8  23 C6 27 41 77 B4 41 40
   538)      7771.5  Rx         03F8  8  0A 0E 28 0E 02 01 02 05
   539)      7771.8  Rx         03FA  8  27 7A 01 00 5F FE FF FF
   540)      7772.1  Rx         03F6  8  AA 01 23 FF 82 FC 30 00
   541)      7790.9  Rx         0604  8  CD CC E2 42 00 00 E0 40
   542)      7791.1  Rx         0614  8  CD CC E2 42 00 00 E0 40
   543)      7871.2  Rx         0605  8  00 00 00 08 04 01 80 0C
   544)      7871.5  Rx         0615  8  00 00 00 08 00 01 80 0C
   545)      7872.0  Rx         03F8  8  0A 0E 28 0E 02 01 02 05
   546)      7872.3  Rx         03FA  8  27 7A 01 00 58 FE FF FF
   547)      7872.6  Rx         03F6  8  AA 01 23 FF 82 FC 30 00
   548)      7951.5  Rx         0606  8  CB CA E2 42 97 3C BD 41
   549)      7951.8  Rx         0616  8  23 FC E2 42 FB 4C BC 41
   550)      7972.5  Rx         03F8  8  0A 0E 28 0E 02 01 02 05
   551)      7972.9  Rx         03FA  8  37 7A 01 00 57 FE FF FF
   552)      7973.2  Rx         03F6  8  AA 01 23 FF 82 FC 30 00
   553)      8073.2  Rx         03F8  8  0A 0E 28 0E 02 01 02 05
   554)      8073.4  Rx         03FA  8  27 7A 01 00 4F FE FF FF
   555)      8073.7  Rx         03F6  8  AA 01 23 FF 82 FC 30 00
   556)      8173.7  Rx         03F8  8  0A 0E 28 0E 02 01 02 05
   557)      8174.0  Rx         03FA  8  27 7A 01 00 57 FE FF FF
   558)      8174.3  Rx         03F6  8  AA 01 23 FF 82 FC 30 00
   559)      8272.9  Rx         0600  8  64 62 45 42 F3 77 86 3C
   560)      8273.1  Rx         0610  8  0A 28 68 42 7B D5 75 3C
   561)      8274.3  Rx         03F8  8  0A 0E 28 0E 02 01 02 05
   562)      8274.6  Rx         03FA  8  37 7A 01 00 5B FE FF FF
   563)      8274.9  Rx         03F6  8  AA 01 23 FF 82 FC 30 00
   564)      8284.4  Rx         0304  8  CB 0E 00 00 F2 00 E3 00
   565)      8285.4  Rx         0307  8  D1 0E 00 00 E8 00 E5 00
   566)      8286.3  Rx         0305  8  12 0E 0A 0E 12 0E 21 0E
   567)      8287.2  Rx         0308  8  11 0E 14 0E 12 0E 14 0E
   568)      8288.2  Rx         0306  8  13 0E 29 0E 0F 0E 14 0E
   569)      8289.2  Rx         0301  8  52 12 00 00 00 01 E3 00
   570)      8290.1  Rx         0309  8  14 0E 19 0E 18 0E 14 0E
   571)      8291.0  Rx         0302  8  13 0E 15 0E 12 0E 15 0E
   572)      8291.9  Rx         030A  8  DF 0F 00 00 CD 00 E3 00
   573)      8292.9  Rx         0303  8  14 0E 17 0E 00 80 00 80
   574)      8293.8  Rx         030B  8  16 0E 19 0E 15 0E 18 0E
   575)      8294.9  Rx         030C  8  18 0E 00 80 00 80 00 80
   576)      8353.2  Rx         0601  8  47 37 E3 42 BC A0 E9 3B
   577)      8353.5  Rx         0611  8  8D 77 E3 42 E7 E6 FA 3B
   578)      8375.7  Rx         03F8  8  0A 0E 29 0E 02 01 02 05
   579)      8376.0  Rx         03FA  8  37 7A 01 00 5E FE FF FF
   580)      8376.3  Rx         03F6  8  A9 01 23 FF 82 FC 30 00
   581)      8376.6  Rx         03F9  8  E3 00 E5 00 01 00 03 00
   582)      8376.9  Rx         0300  8  05 50 00 00 AB 0D 00 00
   583)      8377.2  Rx         03FB  8  D2 0F A0 0F 80 04 C7 03
   584)      8377.6  Rx         03F7  8  5C 04 00 00 DC 00 01 00
   585)      8377.8  Rx         03F4  8  D2 D2 CB 41 3C 3C F0 3E
   586)      8378.2  Rx         03F5  8  00 00 00 00 00 00 00 00
   587)      8378.5  Rx         03FC  8  BA 09 F6 09 EF 03 1F 00
   588)      8378.8  Rx         03FD  8  80 00 00 00 00 00 00 00
   589)      8433.6  Rx         0602  8  E7 38 C5 41 9B 58 D7 41
   590)      8433.8  Rx         0612  8  E3 62 C5 41 93 61 F9 41
   591)      8475.4  Rx         03F8  8  0A 0E 29 0E 02 01 02 05
   592)      8475.7  Rx         03FA  8  27 7A 01 00 59 FE FF FF
   593)      8476.0  Rx         03F6  8  A9 01 23 FF 82 FC 30 00
   594)      8514.0  Rx         0603  8  F8 C9 28 41 34 F8 3E 40
   595)      8514.2  Rx         0613  8  09 C2 26 41 67 AF 41 40
   596)      8576.0  Rx         03F8  8  0A 0E 29 0E 02 01 02 05
   597)      8576.3  Rx         03FA  8  27 7A 01 00 5C FE FF FF
   598)      8576.6  Rx         03F6  8  A9 01 23 FF 82 FC 30 00
   599)      8594.3  Rx         0604  8  CD CC E2 42 00 00 E0 40
   600)      8594.5  Rx         0614  8  CD CC E2 42 00 00 E0 40
   601)      8674.6  Rx         0605  8  00 00 00 08 00 01 80 0D
   602)      8674.9  Rx         0615  8  00 00 00 08 00 01 80 0D
   603)      8676.5  Rx         03F8  8  0A 0E 29 0E 02 01 02 05
   604)      8676.9  Rx         03FA  8  37 7A 01 00 57 FE FF FF
   605)      8677.2  Rx         03F6  8  A9 01 23 FF 82 FC 30 00
   606)      8754.9  Rx         0606  8  FD 72 E3 42 0C 36 BD 41
   607)      8755.2  Rx         0616  8  50 A6 E3 42 4B 4F BC 41
   608)      8777.1  Rx         03F8  8  0A 0E 29 0E 02 01 02 05
   609)      8777.4  Rx         03FA  8  27 7A 01 00 54 FE FF FF
   610)      8777.7  Rx         03F6  8  A9 01 23 FF 82 FC 30 00
   611)      8877.6  Rx         03F8  8  0A 0E 29 0E 02 01 02 05
   612)      8877.9  Rx         03FA  8  27 7A 01 00 5E FE FF FF
   613)      8878.3  Rx         03F6  8  A9 01 23 FF 82 FC 30 00
   614)      8978.2  Rx         03F8  8  0A 0E 29 0E 02 01 02 05
   615)      8978.5  Rx         03FA  8  27 7A 01 00 4F FE FF FF
   616)      8978.9  Rx         03F6  8  A9 01 23 FF 82 FC 30 00
   617)      9078.8  Rx         03F8  8  0A 0E 29 0E 02 01 02 05
   618)      9079.1  Rx         03FA  8  27 7A 01 00 57 FE FF FF
   619)      9079.4  Rx         03F6  8  A9 01 23 FF 82 FC 30 00
   620)      9081.5  Rx         0600  8  ED 38 4E 42 DF 43 84 3C
   621)      9081.7  Rx         0610  8  ED 26 68 42 4F DC 76 3C
   622)      9161.8  Rx         0601  8  D5 E7 E2 42 DA 6A F0 3B
   623)      9162.1  Rx         0611  8  70 28 E3 42 B0 49 FC 3B
   624)      9173.2  Rx         0304  8  CB 0E 00 00 F2 00 E3 00
   625)      9174.2  Rx         0307  8  D1 0E 00 00 E8 00 E3 00
   626)      9175.1  Rx         0305  8  12 0E 0A 0E 12 0E 21 0E
   627)      9176.1  Rx         0308  8  11 0E 14 0E 12 0E 14 0E
   628)      9177.0  Rx         0306  8  13 0E 29 0E 0F 0E 14 0E
   629)      9177.9  Rx         0301  8  52 12 00 00 00 01 E4 00
   630)      9178.9  Rx         0309  8  14 0E 19 0E 18 0E 14 0E
   631)      9179.4  Rx         03F8  8  0A 0E 29 0E 02 01 02 05
   632)      9179.7  Rx         03FA  8  27 7A 01 00 5F FE FF FF
   633)      9180.0  Rx         03F6  8  A9 01 23 FF 82 FC 30 00
   634)      9180.2  Rx         0302  8  13 0E 15 0E 12 0E 15 0E
   635)      9180.7  Rx         030A  8  DF 0F 00 00 CC 00 E3 00
   636)      9181.7  Rx         0303  8  14 0E 17 0E 00 80 00 80
   637)      9182.6  Rx         030B  8  16 0E 19 0E 14 0E 18 0E
   638)      9183.7  Rx         030C  8  18 0E 00 80 00 80 00 80
   639)      9242.1  Rx         0602  8  AF 3D C5 41 AA 98 D7 41
   640)      9242.4  Rx         0612  8  0F 6C C5 41 9A 5B F9 41
   641)      9279.9  Rx         03F8  8  0A 0E 29 0E 02 01 02 05
   642)      9280.2  Rx         03FA  8  27 7A 01 00 5E FE FF FF
   643)      9280.5  Rx         03F6  8  A9 01 23 FF 82 FC 30 00
   644)      9322.5  Rx         0603  8  D7 19 29 41 27 FE 3E 40
   645)      9322.7  Rx         0613  8  5F 14 27 41 6F B5 41 40
   646)      9381.4  Rx         03F8  8  0A 0E 29 0E 02 01 02 05
   647)      9381.7  Rx         03FA  8  27 7A 01 00 58 FE FF FF
   648)      9382.0  Rx         03F6  8  A9 01 23 FF 82 FC 30 00
   649)      9382.3  Rx         03F9  8  E3 00 E4 00 02 00 01 00
   650)      9382.6  Rx         0300  8  05 50 00 00 AB 0D 00 00
   651)      9382.9  Rx         03FB  8  D2 0F A0 0F 80 04 C7 03
   652)      9383.2  Rx         03F7  8  5C 04 00 00 DD 00 01 00
   653)      9383.5  Rx         03F4  8  13 D3 CB 41 E6 3B F0 3E
   654)      9383.8  Rx         03F5  8  00 00 00 00 00 00 00 00
   655)      9384.1  Rx         03FC  8  BA 09 F6 09 D0 03 1F 00
   656)      9384.4  Rx         03FD  8  80 00 00 00 00 00 00 00
   657)      9402.9  Rx         0604  8  CD CC E2 42 00 00 E0 40
   658)      9403.1  Rx         0614  8  CD CC E2 42 00 00 E0 40
   659)      9481.1  Rx         03F8  8  0A 0E 29 0E 02 01 02 05
   660)      9481.4  Rx         03FA  8  37 7A 01 00 58 FE FF FF
   661)      9481.7  Rx         03F6  8  A9 01 22 FF 82 FC 30 00
   662)      9483.2  Rx         0605  8  00 00 00 08 00 01 80 0E
   663)      9483.4  Rx         0615  8  00 00 00 08 00 01 80 0E
   664)      9563.5  Rx         0606  8  F2 21 E3 42 7E 3D BD 41
   665)      9563.7  Rx         0616  8  BA 55 E3 42 4F 4B BC 41
   666)      9581.6  Rx         03F8  8  0A 0E 29 0E 02 01 02 05
   667)      9581.9  Rx         03FA  8  27 7A 01 00 58 FE FF FF
   668)      9582.2  Rx         03F6  8  A9 01 22 FF 82 FC 30 00
   669)      9682.2  Rx         03F8  8  0A 0E 29 0E 02 01 02 05
   670)      9682.5  Rx         03FA  8  27 7A 01 00 51 FE FF FF
   671)      9682.8  Rx         03F6  8  A9 01 22 FF 82 FC 30 00
   672)      9782.8  Rx         03F8  8  0A 0E 29 0E 02 01 02 05
   673)      9783.1  Rx         03FA  8  37 7A 01 00 53 FE FF FF
   674)      9783.3  Rx         03F6  8  A9 01 22 FF 82 FC 30 00
   675)      9883.3  Rx         03F8  8  0A 0E 29 0E 02 01 02 05
   676)      9883.7  Rx         03FA  8  27 7A 01 00 56 FE FF FF
   677)      9883.9  Rx         03F6  8  A9 01 22 FF 82 FC 30 00
   678)      9884.9  Rx         0600  8  9A 99 51 42 A1 0E 81 3C
   679)      9885.1  Rx         0610  8  C3 25 68 42 47 72 75 3C
   680)      9965.2  Rx         0601  8  27 99 E2 42 7B C0 EE 3B
   681)      9965.4  Rx         0611  8  FF D5 E2 42 9B 31 FB 3B
   682)      9983.9  Rx         03F8  8  0A 0E 29 0E 02 01 02 05
   683)      9984.2  Rx         03FA  8  27 7A 01 00 51 FE FF FF
   684)      9984.5  Rx         03F6  8  A9 01 22 FF 82 FC 30 00
   685)     10045.6  Rx         0602  8  C6 38 C5 41 BB 86 D7 41
   686)     10045.8  Rx         0612  8  4C 73 C5 41 B8 EB F8 41
   687)     10062.0  Rx         0304  8  CB 0E 00 00 F2 00 E3 00
   688)     10063.0  Rx         0307  8  D1 0E 00 00 E8 00 E3 00
   689)     10063.9  Rx         0305  8  12 0E 0A 0E 12 0E 21 0E
   690)     10064.9  Rx         0308  8  11 0E 14 0E 12 0E 14 0E
   691)     10065.8  Rx         0306  8  13 0E 28 0E 0F 0E 14 0E
   692)     10066.8  Rx         0301  8  52 12 00 00 00 01 E4 00
   693)     10067.7  Rx         0309  8  14 0E 19 0E 18 0E 15 0E
   694)     10068.6  Rx         0302  8  13 0E 15 0E 12 0E 15 0E
   695)     10069.6  Rx         030A  8  DF 0F 00 00 CC 00 E3 00
   696)     10070.5  Rx         0303  8  14 0E 17 0E 00 80 00 80
   697)     10071.4  Rx         030B  8  16 0E 19 0E 14 0E 18 0E
   698)     10072.5  Rx         030C  8  18 0E 00 80 00 80 00 80
   699)     10084.5  Rx         03F8  8  0A 0E 28 0E 02 01 02 05
   700)     10084.8  Rx         03FA  8  27 7A 01 00 5A FE FF FF
   701)     10085.1  Rx         03F6  8  AA 01 22 FF 82 FC 30 00
   702)     10125.9  Rx         0603  8  0E A3 28 41 28 F5 3E 40
   703)     10126.1  Rx         0613  8  2E 9A 26 41 29 AD 41 40
   704)     10185.0  Rx         03F8  8  0A 0E 28 0E 02 01 02 05
   705)     10185.3  Rx         03FA  8  27 7A 01 00 5D FE FF FF
   706)     10185.6  Rx         03F6  8  AA 01 22 FF 82 FC 30 00
   707)     10206.3  Rx         0604  8  CD CC E2 42 00 00 E0 40
   708)     10206.5  Rx         0614  8  CD CC E2 42 00 00 E0 40
   709)     10285.6  Rx         03F8  8  0A 0E 28 0E 02 01 02 05
   710)     10285.9  Rx         03FA  8  27 7A 01 00 58 FE FF FF
   711)     10286.2  Rx         03F6  8  AA 01 22 FF 82 FC 30 00
   712)     10286.6  Rx         0605  8  00 00 00 08 05 01 80 0F
   713)     10286.9  Rx         0615  8  00 00 00 08 00 01 80 0F
   714)     10366.9  Rx         0606  8  32 CF E2 42 B8 37 BD 41
   715)     10367.1  Rx         0616  8  B5 FC E2 42 A7 53 BC 41
   716)     10387.0  Rx         03F8  8  0A 0E 28 0E 02 01 02 05
   717)     10387.3  Rx         03FA  8  27 7A 01 00 5C FE FF FF
   718)     10387.6  Rx         03F6  8  AA 01 22 FF 82 FC 30 00
   719)     10387.9  Rx         03F9  8  E3 00 E4 00 02 00 01 00
   720)     10388.2  Rx         0300  8  05 50 00 00 AB 0D 00 00
   721)     10388.5  Rx         03FB  8  D2 0F A0 0F 80 04 C7 03
   722)     10388.8  Rx         03F7  8  5C 04 00 00 DE 00 01 00
   723)     10389.1  Rx         03F4  8  52 D3 CB 41 92 3B F0 3E
   724)     10389.4  Rx         03F5  8  00 00 00 00 00 00 00 00
   725)     10389.7  Rx         03FC  8  BA 09 F6 09 AE 03 1F 00
   726)     10390.1  Rx         03FD  8  80 00 00 00 00 00 00 00
   727)     10486.7  Rx         03F8  8  0A 0E 28 0E 02 01 02 05
   728)     10487.0  Rx         03FA  8  37 7A 01 00 5B FE FF FF
   729)     10487.3  Rx         03F6  8  AA 01 22 FF 82 FC 30 00
   730)     10587.3  Rx         03F8  8  0A 0E 28 0E 02 01 02 05
   731)     10587.6  Rx         03FA  8  27 7A 01 00 5E FE FF FF
   732)     10587.9  Rx         03F6  8  AA 01 22 FF 82 FC 30 00
   733)     10687.9  Rx         03F8  8  0A 0E 28 0E 02 01 02 05
   734)     10688.2  Rx         03FA  8  37 7A 01 00 5F FE FF FF
   735)     10688.4  Rx         0600  8  E9 0A 49 42 1F 2F 86 3C
   736)     10688.6  Rx         03F6  8  AA 01 22 FF 82 FC 30 00
   737)     10688.9  Rx         0610  8  13 24 68 42 73 8B 75 3C
   738)     10768.7  Rx         0601  8  05 C8 E2 42 D5 E8 ED 3B
   739)     10768.9  Rx         0611  8  15 03 E3 42 A1 17 FB 3B
   740)     10788.4  Rx         03F8  8  0A 0E 28 0E 02 01 02 05
   741)     10788.7  Rx         03FA  8  27 7A 01 00 62 FE FF FF
   742)     10789.0  Rx         03F6  8  AA 01 22 FF 82 FC 30 00
   743)     10849.0  Rx         0602  8  D0 41 C5 41 07 5C D7 41
   744)     10849.3  Rx         0612  8  AD 6F C5 41 D7 19 F9 41
   745)     10889.0  Rx         03F8  8  0A 0E 28 0E 02 01 02 05
   746)     10889.3  Rx         03FA  8  27 7A 01 00 57 FE FF FF
   747)     10889.6  Rx         03F6  8  AA 01 22 FF 82 FC 30 00
   748)     10929.3  Rx         0603  8  98 B3 29 41 DB F8 3E 40
   749)     10929.6  Rx         0613  8  86 BD 27 41 AD AD 41 40
   750)     10950.8  Rx         0304  8  CB 0E 00 00 F1 00 E3 00
   751)     10951.7  Rx         0307  8  D1 0E 00 00 E8 00 E3 00
   752)     10952.7  Rx         0305  8  12 0E 0A 0E 12 0E 21 0E
   753)     10953.6  Rx         0308  8  11 0E 14 0E 12 0E 14 0E
   754)     10954.6  Rx         0306  8  13 0E 28 0E 0F 0E 14 0E
   755)     10955.5  Rx         0301  8  52 12 00 00 01 01 E4 00
   756)     10956.4  Rx         0309  8  14 0E 19 0E 18 0E 14 0E
   757)     10957.4  Rx         0302  8  13 0E 14 0E 12 0E 15 0E
   758)     10958.4  Rx         030A  8  DF 0F 00 00 CC 00 E3 00
   759)     10959.3  Rx         0303  8  14 0E 17 0E 00 80 00 80
   760)     10960.2  Rx         030B  8  16 0E 19 0E 15 0E 18 0E
   761)     10961.3  Rx         030C  8  18 0E 00 80 00 80 00 80
   762)     10989.5  Rx         03F8  8  0A 0E 28 0E 02 01 02 05
   763)     10989.8  Rx         03FA  8  27 7A 01 00 64 FE FF FF
   764)     10990.1  Rx         03F6  8  AA 01 22 FF 82 FC 30 00
   765)     11009.7  Rx         0604  8  CD CC E2 42 00 00 E0 40
   766)     11009.9  Rx         0614  8  CD CC E2 42 00 00 E0 40
   767)     11090.0  Rx         0605  8  00 00 00 08 05 01 80 10
   768)     11090.3  Rx         03F8  8  0A 0E 28 0E 02 01 02 05
   769)     11090.5  Rx         0615  8  00 00 00 08 00 01 80 10
   770)     11090.7  Rx         03FA  8  27 7A 01 00 59 FE FF FF
   771)     11091.0  Rx         03F6  8  AA 01 22 FF 82 FC 30 00
   772)     11170.4  Rx         0606  8  B3 F9 E2 42 42 39 BD 41
   773)     11170.6  Rx         0616  8  67 2D E3 42 8D 59 BC 41
   774)     11190.7  Rx         03F8  8  0A 0E 28 0E 02 01 02 05
   775)     11191.0  Rx         03FA  8  27 7A 01 00 5D FE FF FF
   776)     11191.3  Rx         03F6  8  AA 01 22 FF 82 FC 30 00
   777)     11291.2  Rx         03F8  8  0A 0E 28 0E 02 01 02 05
   778)     11291.5  Rx         03FA  8  27 7A 01 00 5D FE FF FF
   779)     11291.8  Rx         03F6  8  AA 01 22 FF 82 FC 30 00
   780)     11392.7  Rx         03F8  8  0A 0E 28 0E 02 01 02 05
   781)     11393.0  Rx         03FA  8  27 7A 01 00 56 FE FF FF
   782)     11393.3  Rx         03F6  8  AA 01 22 FF 82 FC 30 00
   783)     11393.6  Rx         03F9  8  E3 00 E4 00 02 00 01 00
   784)     11393.9  Rx         0300  8  05 50 00 00 AB 0D 00 00
   785)     11394.2  Rx         03FB  8  D2 0F A0 0F 80 04 C7 03
   786)     11394.5  Rx         03F7  8  5C 04 00 00 DF 00 01 00
   787)     11394.8  Rx         03F4  8  8F D3 CB 41 40 3B F0 3E
   788)     11395.1  Rx         03F5  8  00 00 00 00 00 00 00 00
   789)     11395.4  Rx         03FC  8  BA 09 F6 09 D4 03 1F 00
   790)     11395.8  Rx         03FD  8  80 00 00 00 00 00 00 00
   791)     11491.7  Rx         0600  8  4B CE 45 42 AE 09 88 3C
   792)     11491.9  Rx         0610  8  20 24 68 42 E3 41 76 3C
   793)     11492.4  Rx         03F8  8  0A 0E 28 0E 02 01 02 05
   794)     11492.7  Rx         03FA  8  27 7A 01 00 5F FE FF FF
   795)     11493.0  Rx         03F6  8  AA 01 22 FF 82 FC 30 00
